CITIFILE A.01.00
#NA VERSION HP8753ES.07.64: Feb 23, 2000
NAME RAW_DATA
VAR FREQ MAG 201
DATA S[1,1] RI
DATA S[2,1] RI
DATA S[1,2] RI
DATA S[2,2] RI
SEG_LIST_BEGIN
SEG 30000 6000000000 201
SEG_LIST_END
BEGIN
1.06317E0,0.50048E-1
5.32150E-2,7.36236E-2
0.33859E-1,-1.45134E-1
-1.79260E-1,0.46676E-1
0.64209E-1,1.81030E-1
1.85974E-1,-7.83081E-2
-9.98840E-2,-2.02438E-1
-2.11959E-1,1.17370E-1
1.52893E-1,1.90170E-1
1.79946E-1,-1.76254E-1
-1.75003E-1,-1.31378E-1
-5.00030E-2,1.59744E-1
1.09466E-1,2.62298E-2
0.16460E-2,-2.40936E-2
2.31704E-2,-5.62095E-3
-7.52372E-2,-7.42263E-2
-1.32621E-1,1.49322E-1
2.11547E-1,0.80688E-1
-2.28576E-2,-2.64923E-1
-2.72491E-1,-1.12762E-2
0.33065E-1,2.71606E-1
3.38317E-1,-1.00280E-1
-1.02844E-1,-3.83544E-1
-3.61908E-1,1.84753E-1
2.71911E-1,3.91387E-1
4.15283E-1,-2.83630E-1
-3.75549E-1,-3.73077E-1
-3.67004E-1,4.42749E-1
4.75006E-1,3.92944E-1
3.03863E-1,-5.75592E-1
-5.98419E-1,-3.33404E-1
-2.67944E-1,6.57165E-1
6.93725E-1,1.72424E-1
2.16003E-1,-7.60925E-1
-7.22229E-1,-1.32324E-1
-3.00293E-2,7.73254E-1
7.94372E-1,0.49499E-1
0.20507E-1,-7.58850E-1
-7.58728E-1,1.11389E-1
0.54626E-1,7.68493E-1
7.60742E-1,-1.01562E-1
-1.57226E-1,-7.12951E-1
-7.72949E-1,0.59814E-1
0.61950E-1,7.29919E-1
7.08984E-1,-7.4646E-2
-2.74047E-2,-7.71606E-1
-7.02392E-1,-4.79736E-2
-1.78222E-2,7.32605E-1
7.41760E-1,0.54199E-1
1.56982E-1,-6.92932E-1
-7.12280E-1,-1.10595E-1
-1.90734E-1,7.02087E-1
6.63269E-1,2.82592E-1
2.59887E-1,-6.44775E-1
-6.72546E-1,-3.22021E-1
-3.71887E-1,5.89111E-1
5.61065E-1,4.21966E-1
4.49523E-1,-5.83770E-1
-4.67742E-1,-5.01556E-1
-5.64239E-1,4.39483E-1
4.55932E-1,5.47546E-1
6.18316E-1,-3.02825E-1
-2.85095E-1,-6.26709E-1
-6.07238E-1,3.01910E-1
1.76086E-1,6.69189E-1
6.37817E-1,-1.20727E-1
-1.67236E-1,-6.40869E-1
-6.69860E-1,0.53710E-1
-4.47998E-2,6.23168E-1
6.26220E-1,-4.01001E-2
0.56884E-1,-6.35009E-1
-5.82214E-1,-1.83868E-1
-7.49511E-2,5.66284E-1
5.91369E-1,1.49444E-1
2.67944E-1,-5.16418E-1
-4.98992E-1,-1.77368E-1
-2.15881E-1,5.34179E-1
4.37011E-1,3.31176E-1
2.48260E-1,-4.25048E-1
-4.68475E-1,-2.60833E-1
-3.78265E-1,3.53881E-1
3.55133E-1,2.86285E-1
3.04107E-1,-4.01702E-1
-2.86560E-1,-4.19769E-1
-3.30902E-1,2.88238E-1
3.29498E-1,3.70483E-1
4.84191E-1,-1.95159E-1
-1.77124E-1,-3.81958E-1
-4.15466E-1,2.34314E-1
1.07727E-1,5.1474E-1
4.23950E-1,-6.09741E-2
-1.27899E-1,-4.42932E-1
-5.28106E-1,0.18890E-1
-5.96923E-2,4.37194E-1
4.49340E-1,0.01800E-1
1.03546E-1,-5.12847E-1
-4.22119E-1,-1.87683E-1
-1.51977E-1,4.15069E-1
4.46472E-1,2.38922E-1
2.97790E-1,-3.40759E-1
-3.32061E-1,-2.61596E-1
-3.39325E-1,3.46649E-1
2.31628E-1,3.90502E-1
3.50708E-1,-1.93481E-1
-2.04284E-1,-3.94317E-1
-4.22302E-1,0.89782E-1
0.40924E-1,3.64044E-1
3.72039E-1,-7.45239E-2
0.15075E-1,-3.98223E-1
-3.31451E-1,-6.38732E-2
-4.03137E-2,3.31237E-1
3.35510E-1,1.21246E-1
1.69693E-1,-2.37197E-1
-2.11517E-1,-1.16378E-1
-1.62475E-1,2.51907E-1
1.51168E-1,2.41119E-1
1.99203E-1,-8.78601E-2
-1.35437E-1,-2.29064E-1
-2.68478E-1,0.87997E-1
0.33058E-1,1.55494E-1
1.19422E-1,-8.85849E-2
-2.41394E-2,-1.67511E-1
-7.72666E-2,-5.01556E-2
2.05650E-2,4.03289E-2
1.07948E-1,0.49285E-2
6.77604E-2,-5.46302E-2
-3.50284E-2,0.02746E-2
-1.62124E-2,1.09108E-1
6.10847E-2,6.30645E-2
-2.07481E-2,-4.73022E-2
-1.29989E-1,0.13145E-1
-3.62243E-2,9.98306E-2
9.35974E-2,-3.21884E-2
-1.19781E-2,-1.70028E-1
-1.22169E-1,-3.21731E-2
4.92858E-2,1.10954E-1
1.93222E-1,-1.36108E-2
0.65528E-1,-1.32736E-1
-1.01776E-1,1.27563E-2
-1.96075E-2,2.0224E-1
1.52694E-1,1.30409E-1
7.35855E-2,-1.01287E-1
-1.87683E-1,-1.03027E-1
-2.35244E-1,1.12701E-1
0.09979E-1,1.76467E-1
1.66183E-1,-8.58306E-2
-9.97924E-3,-2.98767E-1
-2.28195E-1,-1.39572E-1
-6.10809E-2,1.65710E-1
2.84362E-1,0.84915E-1
2.44644E-1,-2.33322E-1
-1.38519E-1,-2.03750E-1
-2.27279E-1,2.43545E-1
1.66595E-1,3.69842E-1
3.10058E-1,-3.83300E-2
-1.33941E-1,-3.06610E-1
-4.17205E-1,0.58563E-1
-9.10644E-2,3.56048E-1
3.50830E-1,0.43853E-1
1.32415E-1,-4.27429E-1
-2.89077E-1,-2.44918E-1
-1.14028E-1,2.95150E-1
4.06890E-1,1.97143E-1
3.46344E-1,-2.42614E-1
-1.88690E-1,-2.35275E-1
-2.62664E-1,3.15795E-1
1.67388E-1,3.63494E-1
2.49282E-1,-1.29974E-1
-2.47741E-1,-2.5177E-1
-3.36303E-1,1.23016E-1
0.87219E-1,2.32666E-1
2.62893E-1,-1.83166E-1
-7.66296E-2,-3.37524E-1
-2.33276E-1,0.53421E-1
1.60110E-1,2.56958E-1
3.17047E-1,-6.62841E-2
-4.18548E-2,-2.15652E-1
-2.42370E-1,1.51962E-1
0.72998E-1,3.06930E-1
2.35473E-1,-5.53894E-2
-1.64337E-1,-2.52777E-1
-3.26110E-1,0.80383E-1
0.32363E-1,2.79724E-1
2.95227E-1,-1.09863E-1
-1.63269E-2,-3.90411E-1
-3.79180E-1,-8.77380E-2
0.04821E-1,3.6026E-1
4.43054E-1,0.34637E-1
1.93969E-1,-4.12994E-1
-3.44909E-1,-1.32659E-1
-1.40594E-1,4.15557E-1
3.94531E-1,3.26477E-1
3.01269E-1,-3.03237E-1
-3.53118E-1,-2.59826E-1
-4.26849E-1,3.17108E-1
1.90734E-1,3.84704E-1
3.42437E-1,-2.46032E-1
-2.45086E-1,-5.10528E-1
-4.73266E-1,0.56945E-1
1.21551E-1,4.19342E-1
5.64697E-1,-9.76562E-2
END
BEGIN
-1.73580E-3,-3.18765E-4
1.34521E0,3.03491E0
2.16235E0,-2.73632E0
-3.66186E0,-3.92822E-1
1.63037E0,3.33471E0
2.04028E0,-3.03979E0
-3.57666E0,-2.53418E-1
1.72143E0,3.25585E0
1.75903E0,-3.16406E0
-3.53466E0,0.59082E-1
1.96508E0,2.89868E0
1.25048E0,-3.24633E0
-3.30566E0,9.34570E-1
2.61096E0,1.93554E0
-9.93652E-2,-3.10229E0
-2.23437E0,2.14245E0
3.2229E0,-5.91308E-1
-2.68042E0,0.60058E-1
9.18029E-1,0.38879E-1
-1.21559E-1,-1.26434E-1
-2.31971E-2,2.01797E-2
1.63555E-3,1.19791E-2
5.58280E-3,2.64883E-3
4.74572E-3,-2.67720E-3
-2.32601E-3,-5.49888E-3
-4.31823E-3,2.86555E-3
3.13878E-3,2.72870E-3
0.98991E-3,-2.01952E-3
-5.04195E-4,-5.07831E-5
1.61588E-4,-1.24758E-3
-2.44200E-3,0.73969E-3
2.27642E-3,3.05557E-3
2.75588E-3,-3.49903E-3
-4.52089E-3,-2.25782E-3
-8.18252E-4,5.35297E-3
5.25808E-3,-4.31537E-4
-1.37329E-3,-5.08379E-3
-4.83608E-3,1.91402E-3
2.66647E-3,4.37259E-3
3.92866E-3,-3.54409E-3
-5.05137E-3,-3.74412E-3
-1.91879E-3,5.51080E-3
5.8465E-3,0.36001E-3
-1.39427E-3,-5.54990E-3
-4.23169E-3,2.36868E-3
3.09133E-3,3.36504E-3
2.33006E-3,-3.25918E-3
-3.20482E-3,-1.41406E-3
-6.16312E-4,3.0725E-3
2.84695E-3,0.17380E-3
-4.08053E-4,-2.47895E-3
-1.88851E-3,6.99639E-4
9.00745E-4,1.73711E-3
1.49762E-3,-1.13439E-3
-1.02317E-3,-9.64343E-4
-9.27388E-4,1.22082E-3
1.20705E-3,6.77049E-4
3.37839E-4,-1.04957E-3
-1.26355E-3,-1.54614E-4
1.85906E-4,1.00463E-3
1.19596E-3,-5.04255E-5
-3.00407E-4,-1.04624E-3
-6.46054E-4,1.94907E-4
4.59253E-4,5.05328E-4
4.58747E-4,-4.76419E-4
-2.98738E-4,-4.46111E-4
-3.43978E-4,5.17010E-4
0.55849E-4,2.47061E-4
-2.11417E-4,-1.68412E-4
-1.33894E-4,0.64984E-4
-5.97387E-5,-1.11252E-4
-3.35872E-4,1.57088E-4
4.92066E-4,2.52544E-4
-3.14801E-4,-5.96016E-4
-3.64273E-4,2.42322E-4
3.19778E-4,3.70234E-4
0.97572E-4,-7.54535E-4
-4.15146E-4,-2.95162E-4
0.30815E-4,5.9852E-4
1.94117E-4,0.74446E-4
0.28997E-4,-5.05387E-4
-4.16159E-4,1.15394E-4
1.95711E-4,3.72409E-4
3.38971E-4,-2.89976E-4
-8.47801E-5,-1.44347E-4
-5.25355E-4,1.96307E-4
3.14608E-4,2.03609E-4
0.24318E-4,-2.52783E-4
-1.10745E-4,-1.69530E-4
-2.71081E-4,5.19365E-4
3.24219E-4,2.77996E-4
1.12444E-4,-5.56260E-4
-6.20275E-4,1.48922E-4
-4.64916E-6,4.49985E-4
1.24648E-4,-1.67116E-4
-2.34283E-5,-5.49629E-5
-2.01642E-4,0.51438E-4
0.74699E-4,1.91554E-4
1.09463E-4,-3.36319E-4
-3.55601E-4,-4.34815E-5
-1.76131E-5,-1.11185E-4
-2.01657E-4,0.03084E-4
1.10119E-4,3.85522E-4
4.76151E-4,-5.68002E-4
-9.27329E-4,-1.56164E-4
3.31282E-4,8.36968E-4
6.81042E-4,-5.64217E-4
-6.42567E-4,-2.83390E-4
-1.26719E-4,5.68449E-4
5.69254E-4,0.02503E-4
0.14722E-4,-4.90546E-4
-5.64545E-4,1.35839E-4
2.47120E-4,4.36693E-4
2.84910E-4,-3.92586E-4
-5.75780E-4,0.07450E-4
2.93076E-4,6.70731E-4
7.81595E-4,-9.77456E-4
-2.32052E-3,0.03147E-3
2.41100E-3,1.82032E-3
0.04828E-3,-2.5841E-3
-2.09772E-3,0.67138E-3
0.81634E-3,2.06613E-3
2.12919E-3,-1.46269E-3
-2.30443E-3,-1.93107E-3
-1.35159E-3,3.08704E-3
3.76224E-3,0.52881E-3
-7.81536E-4,-4.02259E-3
-3.69787E-3,2.27570E-3
3.24177E-3,2.53629E-3
1.28364E-3,-3.42869E-3
-3.24535E-3,-3.62873E-4
0.34737E-3,3.05581E-3
2.70247E-3,-1.03616E-3
-1.40678E-3,-2.16448E-3
-1.65653E-3,1.76322E-3
1.93584E-3,9.23037E-4
5.07116E-4,-1.87158E-3
-1.83260E-3,-7.03334E-5
4.53710E-4,1.68454E-3
1.35254E-3,-7.94053E-4
-1.03998E-3,-1.02734E-3
-6.21557E-4,1.29783E-3
1.22028E-3,2.43485E-4
-4.57763E-5,-1.29747E-3
-1.36530E-3,3.23772E-4
6.82056E-4,1.21605E-3
1.22761E-3,-1.03867E-3
-1.16753E-3,-9.498E-4
-7.73906E-4,1.38998E-3
1.66463E-3,6.14166E-4
0.47349E-3,-2.03907E-3
-2.24459E-3,-1.47700E-4
0.44977E-3,2.56562E-3
2.55286E-3,-9.45687E-4
-1.30677E-3,-2.67839E-3
-2.33221E-3,2.19535E-3
2.35724E-3,1.70993E-3
1.54531E-3,-2.42161E-3
-2.60710E-3,-1.54638E-3
-1.30033E-3,3.09324E-3
3.49998E-3,1.06573E-3
0.31614E-3,-3.85546E-3
-3.64160E-3,0.38504E-3
0.50163E-3,3.69262E-3
4.17280E-3,-1.03688E-3
-1.90401E-3,-3.82280E-3
-3.59010E-3,2.13980E-3
3.20196E-3,3.80039E-3
2.81834E-3,-3.79347E-3
-4.15945E-3,-2.46858E-3
-1.69467E-3,5.01823E-3
5.01346E-3,0.57816E-3
-3.47852E-4,-4.77051E-3
-4.73284E-3,1.07097E-3
1.90353E-3,4.12607E-3
3.43465E-3,-2.28810E-3
-2.74109E-3,-2.93755E-3
-2.06875E-3,3.12852E-3
2.85267E-3,1.37591E-3
0.91791E-3,-2.91180E-3
-2.66814E-3,-3.79085E-4
0.08106E-3,2.3489E-3
2.15232E-3,-4.45962E-4
-9.92178E-4,-1.71339E-3
-9.36985E-4,8.81314E-4
4.63783E-4,7.62999E-4
6.31749E-4,-3.98129E-4
-3.18825E-4,-4.89622E-4
-4.74870E-4,2.95788E-4
3.06665E-4,3.69578E-4
2.04488E-4,-2.81259E-4
-3.06174E-4,-2.15292E-4
0.37893E-4,1.78620E-4
1.63346E-4,-2.16439E-4
-1.83418E-4,-5.35696E-5
1.13338E-4,3.44157E-4
3.29464E-4,-1.41888E-4
-2.79784E-4,-4.08947E-4
-5.84244E-4,3.65316E-4
4.92930E-4,6.51180E-4
6.36339E-4,-8.82983E-4
END
BEGIN
-1.66580E-4,2.28151E-4
7.21216E-5,-9.77590E-5
-1.29915E-4,-3.20673E-5
-2.90572E-7,1.43282E-4
8.64490E-5,0.06333E-5
-3.32891E-5,-2.02238E-4
-1.47864E-4,0.46208E-4
0.25466E-4,1.75565E-4
1.49615E-4,-9.42274E-5
-9.68873E-5,-1.85832E-4
-1.81853E-4,1.59815E-4
2.20298E-4,1.19432E-4
0.69797E-4,-2.49281E-4
-2.86683E-4,0.26375E-4
0.51602E-4,2.12162E-4
1.52498E-4,-1.74433E-4
-1.85832E-4,-1.10611E-4
-4.22149E-5,1.95622E-4
1.33343E-4,-2.68966E-5
-4.54708E-5,-1.22115E-4
-1.19715E-4,5.35473E-5
6.82063E-5,5.90756E-5
3.20337E-5,-6.07483E-5
-8.78199E-5,-2.07647E-5
-4.17232E-6,8.19340E-5
7.37942E-5,0.74021E-5
-1.79335E-5,-7.23414E-5
-3.33637E-5,1.04367E-4
9.68352E-5,0.51334E-5
-4.88907E-5,-1.31286E-4
-1.15513E-4,6.4753E-5
1.04360E-4,2.79247E-5
2.59839E-5,-7.61412E-5
-1.21779E-4,2.80961E-5
0.89518E-5,5.86956E-5
7.99819E-5,-5.64530E-5
-3.58205E-5,-2.63732E-5
-2.45105E-5,0.69327E-5
0.65937E-5,8.56146E-5
4.58136E-5,-8.09729E-5
-1.70186E-4,-1.35153E-5
0.22634E-4,1.52722E-4
1.05917E-4,-7.76201E-5
-1.39370E-4,-5.49927E-5
-7.30827E-5,8.67322E-5
1.3078E-4,-9.32067E-6
-6.37024E-6,-1.31934E-4
-1.28932E-4,0.79557E-4
4.99039E-5,1.09568E-4
1.10931E-4,-6.71595E-5
-8.64937E-5,-8.15317E-5
-4.82052E-5,1.28842E-4
1.14947E-4,-3.57627E-6
-2.45198E-5,-1.18739E-4
-1.29453E-4,0.40985E-4
1.86562E-5,7.89612E-5
1.21541E-4,-8.55773E-5
-1.48281E-4,-4.57167E-5
-7.93933E-5,6.60195E-5
1.00307E-4,0.50440E-5
-1.84923E-5,-9.19029E-5
-8.18744E-5,-2.51680E-5
-4.98369E-5,9.70810E-5
3.47420E-5,-1.34054E-5
-1.53929E-5,-1.98297E-5
-9.22456E-5,3.49804E-5
3.62694E-5,8.19936E-5
8.38786E-5,-8.38264E-5
-6.58445E-5,-2.41808E-5
-2.36332E-5,-4.24794E-5
-3.42633E-5,1.71586E-5
-2.65166E-5,3.98159E-5
7.89016E-5,-7.09295E-5
-9.56058E-5,-2.28285E-5
1.92672E-5,8.70525E-5
6.72228E-5,-5.24446E-5
4.83766E-5,-7.72997E-5
-1.66744E-5,6.70924E-5
5.25154E-5,5.45494E-5
5.28693E-5,-8.61361E-5
-8.61510E-5,-7.88271E-6
-2.21915E-5,6.31101E-5
8.91983E-5,6.26072E-5
7.68974E-5,-8.55773E-5
-1.20945E-4,-9.20891E-6
2.05710E-5,9.30205E-5
7.51391E-5,-1.12578E-5
2.75634E-5,-3.19555E-5
-5.22881E-5,1.42790E-5
-4.21404E-5,0.07823E-5
3.71709E-5,6.15082E-5
1.09002E-4,-2.56449E-5
-1.20386E-4,-1.49831E-5
-5.57303E-5,5.43259E-5
1.12541E-4,8.80807E-5
0.69916E-4,-1.37418E-4
-1.43617E-4,-2.72765E-5
-5.91278E-5,1.41501E-4
1.24134E-4,0.72807E-4
0.97081E-4,-1.83910E-4
-1.56641E-4,-1.04010E-4
-1.33246E-4,3.58700E-4
5.85764E-4,2.02924E-4
-6.71744E-5,-7.26819E-4
-7.55906E-4,4.90665E-4
8.98897E-4,4.66525E-4
0.53525E-4,-8.66174E-4
-7.74562E-4,2.33531E-4
4.08589E-4,4.70042E-4
4.00155E-4,-4.65601E-4
-4.27722E-4,-2.5177E-4
-1.88171E-4,4.53084E-4
5.05179E-4,1.03771E-4
-4.23193E-5,-6.42478E-4
-6.60538E-4,2.86042E-4
6.42776E-4,6.38961E-4
4.65333E-4,-9.59098E-4
-1.30403E-3,0.12755E-4
5.94019E-4,1.46877E-3
1.18696E-3,-1.28543E-3
-1.58166E-3,-8.21709E-4
-5.27381E-4,2.05349E-3
2.49171E-3,-1.13248E-4
-1.09171E-3,-2.46119E-3
-2.14171E-3,1.84106E-3
2.42292E-3,1.56188E-3
0.87499E-3,-2.84528E-3
-2.98452E-3,-2.16960E-5
0.75697E-3,2.85220E-3
2.47025E-3,-1.43837E-3
-1.72960E-3,-1.93595E-3
-1.34432E-3,2.18451E-3
2.17247E-3,0.68485E-3
0.17714E-3,-2.01857E-3
-1.74605E-3,2.20179E-4
4.88162E-4,1.44243E-3
1.11496E-3,-6.99341E-4
-7.13348E-4,-8.29517E-4
-4.93168E-4,6.19351E-4
4.63545E-4,2.75701E-4
2.71678E-4,-3.06457E-4
-1.15618E-4,-2.08318E-4
-1.67802E-4,0.27835E-4
-6.75693E-5,1.17577E-4
2.77236E-5,9.70959E-5
2.23845E-4,-9.91374E-5
-7.83205E-5,-3.57002E-4
-4.50432E-4,1.11430E-4
1.69754E-4,5.90652E-4
7.62879E-4,-3.40759E-4
-4.32133E-4,-8.85665E-4
-9.81569E-4,5.77449E-4
8.73208E-4,1.19525E-3
1.16431E-3,-1.19215E-3
-1.63841E-3,-1.06883E-3
-8.01205E-4,1.97100E-3
1.93035E-3,4.56690E-4
0.40435E-3,-2.07066E-3
-2.21729E-3,-4.29749E-4
-1.48057E-4,2.52175E-3
2.68840E-3,-2.29597E-4
-8.19206E-4,-2.81095E-3
-2.61902E-3,1.17898E-3
1.20949E-3,2.59494E-3
2.77328E-3,-1.68299E-3
-2.07507E-3,-2.39694E-3
-2.30538E-3,2.22122E-3
3.03936E-3,2.20489E-3
1.55520E-3,-3.31378E-3
-3.53956E-3,-1.16252E-3
-7.04526E-4,3.97896E-3
3.97539E-3,-8.72612E-5
-7.32421E-4,-3.8414E-3
-3.68785E-3,1.31630E-3
1.97744E-3,3.18145E-3
2.70676E-3,-2.26116E-3
-2.45928E-3,-2.27189E-3
-1.62768E-3,2.72297E-3
2.67505E-3,1.05810E-3
0.69665E-3,-2.68077E-3
-2.45690E-3,-9.91821E-5
0.16331E-3,2.14660E-3
1.99687E-3,-3.48925E-4
-6.45637E-4,-1.58906E-3
-1.28340E-3,8.34345E-4
7.17639E-4,9.30011E-4
6.97195E-4,-7.38799E-4
-5.32507E-4,-5.23626E-4
-4.25100E-4,5.93274E-4
5.13315E-4,2.58564E-4
0.49188E-4,-2.80633E-4
-3.51101E-4,-3.17692E-5
1.30802E-4,3.22580E-4
0.60662E-4,-2.04652E-4
-2.32830E-4,0.36478E-4
1.33767E-4,2.59295E-4
3.48568E-4,-3.28809E-4
-4.48226E-4,-3.71903E-4
-3.39865E-4,6.49333E-4
8.98897E-4,3.83913E-4
3.54528E-4,-1.08003E-3
END
BEGIN
1.01721E0,0.79406E-1
-4.43267E-3,-3.87611E-2
-3.59592E-2,-1.31702E-2
-2.02446E-2,2.66323E-2
2.44960E-2,2.00157E-2
3.02391E-2,-2.54268E-2
-1.07135E-2,-3.72829E-2
-2.53315E-2,0.51097E-2
1.40934E-2,2.97832E-2
4.21180E-2,0.21400E-2
1.44920E-2,-2.52914E-2
-2.40821E-2,0.05512E-2
-1.11866E-2,4.00772E-2
1.93405E-2,2.55718E-2
3.71074E-3,-1.08079E-2
-3.00445E-2,-1.19037E-2
-3.37486E-2,0.76961E-2
-8.42380E-3,1.28393E-2
1.35068E-2,-1.12819E-2
0.91037E-2,-2.99491E-2
-3.64399E-3,-2.06861E-2
5.95092E-3,9.15956E-3
3.23181E-2,1.63497E-2
2.83393E-2,0.21171E-2
-2.30217E-3,1.07898E-2
-1.35250E-2,3.58448E-2
-6.25038E-3,3.59573E-2
-1.11599E-2,1.35631E-2
-2.32181E-2,-5.93566E-3
-2.80208E-2,-2.16159E-2
-2.84214E-2,-3.13911E-2
-1.64699E-2,-2.55146E-2
1.50451E-2,-2.02865E-2
3.61194E-2,-2.96726E-2
2.47039E-2,-2.25830E-2
1.57489E-2,1.88646E-2
3.33442E-2,4.92706E-2
3.65734E-2,3.49655E-2
-6.22844E-3,1.33276E-2
-5.25970E-2,2.49519E-2
-5.13801E-2,3.87764E-2
-2.44026E-2,1.00612E-2
-1.98020E-2,-4.02679E-2
-3.24859E-2,-5.83686E-2
-2.04353E-2,-3.72467E-2
2.60143E-2,-1.70784E-2
6.43005E-2,-2.45742E-2
5.35926E-2,-3.47633E-2
1.29327E-2,-3.18908E-3
0.08430E-2,5.44204E-2
2.38075E-2,7.01293E-2
1.76296E-2,2.64263E-2
-4.19273E-2,-6.3591E-3
-7.89489E-2,1.78451E-2
-3.67965E-2,3.24592E-2
1.72882E-2,-2.60486E-2
-6.94274E-4,-9.18808E-2
-4.29306E-2,-7.00454E-2
-9.14144E-3,3.04460E-3
7.20939E-2,1.39427E-2
8.39767E-2,-2.82669E-2
2.33593E-2,-1.89838E-2
-5.21469E-3,5.31616E-2
2.82974E-2,8.60595E-2
3.64303E-2,3.77712E-2
-2.79178E-2,-1.17149E-2
-8.96682E-2,0.20599E-2
-7.59010E-2,2.75611E-2
-1.76382E-2,-3.33976E-3
0.48484E-2,-6.96563E-2
-1.20010E-2,-9.01794E-2
-1.89590E-3,-4.23927E-2
6.41746E-2,0.18844E-2
1.10603E-1,-1.02767E-2
6.79588E-2,-2.24952E-2
-8.02421E-3,3.86676E-2
-1.64260E-2,1.20185E-1
1.73568E-2,1.08993E-1
-1.11618E-2,2.09484E-2
-9.63821E-2,-2.02179E-2
-1.10038E-1,0.55465E-2
-2.56252E-2,-6.42776E-3
3.46298E-2,-9.27505E-2
0.08598E-1,-1.29280E-1
-8.89968E-3,-4.91294E-2
6.21299E-2,4.38613E-2
1.25732E-1,0.46386E-1
8.01353E-2,1.48353E-2
-1.82724E-2,5.03578E-2
-4.87289E-2,1.16355E-1
-1.33895E-2,9.74044E-2
-1.81016E-2,-5.39779E-3
-9.01031E-2,-7.04803E-2
-1.17546E-1,-3.64151E-2
-3.07903E-2,0.70056E-2
7.56073E-2,-4.00962E-2
6.93740E-2,-1.03927E-1
0.20065E-2,-5.47714E-2
1.64375E-2,6.22291E-2
9.31854E-2,8.34655E-2
7.55920E-2,0.8255E-2
-4.70619E-2,-5.90515E-3
-1.02691E-1,8.11157E-2
-3.125E-2,1.10855E-1
2.63347E-2,1.46884E-2
-2.84652E-2,-8.43429E-2
-9.93270E-2,-5.48629E-2
-4.52079E-2,2.1698E-2
6.69441E-2,-5.18798E-3
6.84967E-2,-9.14077E-2
-1.49421E-2,-7.48634E-2
-2.68783E-2,4.50439E-2
6.48422E-2,1.03836E-1
1.08551E-1,3.89938E-2
1.75933E-2,-1.84907E-2
-8.33206E-2,3.93295E-2
-6.24389E-2,1.06887E-1
0.68855E-2,5.26809E-2
-1.96342E-2,-7.06291E-2
-1.08459E-1,-9.09042E-2
-9.33380E-2,-1.16958E-2
3.80630E-2,0.52833E-2
1.15409E-1,-7.26165E-2
6.43081E-2,-1.04553E-1
7.97891E-3,-3.42893E-3
5.43594E-2,1.06353E-1
1.01791E-1,8.84170E-2
2.42691E-2,1.79710E-2
-1.06483E-1,3.74450E-2
-1.25213E-1,0.9935E-1
-4.53681E-2,6.39076E-2
-1.44119E-2,-6.86836E-2
-6.45294E-2,-1.39923E-1
-6.91375E-2,-8.64639E-2
3.18775E-2,-2.56729E-2
1.23024E-1,-4.33807E-2
1.03942E-1,-5.86853E-2
3.57208E-2,1.12323E-2
2.66876E-2,1.14227E-1
0.57815E-1,1.31424E-1
3.01094E-2,5.57823E-2
-7.27157E-2,0.22239E-2
-1.37184E-1,0.21301E-1
-9.70382E-2,3.14559E-2
-2.07424E-2,-3.58676E-2
-1.38778E-2,-1.20330E-1
-3.94363E-2,-1.10038E-1
0.45185E-2,-2.65121E-2
1.06460E-1,0.52642E-2
1.38870E-1,-3.08609E-2
6.69288E-2,-3.08418E-2
-5.52368E-3,5.61447E-2
0.08453E-1,1.29135E-1
3.00827E-2,9.40246E-2
-2.66971E-2,1.48563E-2
-1.09176E-1,-2.34222E-3
-1.09161E-1,2.30178E-2
-2.94036E-2,-3.94249E-3
2.44979E-2,-9.25598E-2
0.04043E-1,-1.37458E-1
-6.91986E-3,-8.13980E-2
4.98428E-2,0.66909E-2
1.21673E-1,3.26995E-2
1.12106E-1,0.96511E-2
2.09312E-2,3.00369E-2
-3.71017E-2,1.03393E-1
-1.77764E-2,1.22848E-1
-7.06672E-3,4.14485E-2
-6.70661E-2,-4.84809E-2
-1.19186E-1,-4.94003E-2
-6.96258E-2,-9.81521E-3
3.82671E-2,-3.15284E-2
7.47146E-2,-9.19723E-2
3.25546E-2,-7.76214E-2
2.16827E-2,2.37560E-2
7.99179E-2,8.73794E-2
9.98764E-2,4.46472E-2
7.17210E-3,-3.55768E-3
-9.24377E-2,3.84521E-2
-8.32138E-2,9.54742E-2
-1.22909E-2,5.77087E-2
-1.89971E-3,-4.45060E-2
-5.71136E-2,-8.14704E-2
-6.02378E-2,-2.43454E-2
2.71587E-2,0.84705E-2
8.5495E-2,-4.23660E-2
4.11033E-2,-7.48786E-2
-1.92670E-2,-6.34288E-3
1.11846E-2,8.96759E-2
7.64999E-2,8.69369E-2
5.23376E-2,2.21672E-2
-4.06494E-2,1.74846E-2
-7.70683E-2,7.03735E-2
-3.64952E-2,6.60285E-2
-2.02846E-2,-2.25524E-2
-7.37686E-2,-9.16900E-2
-1.02264E-1,-6.99615E-2
-3.21922E-2,-2.40345E-2
6.89964E-2,-4.25338E-2
9.64508E-2,-7.69805E-2
5.98793E-2,-3.71551E-2
END

