CITIFILE A.01.00
#NA VERSION HP8753ES.07.64: Feb 23, 2000
NAME DATA
VAR FREQ MAG 201
DATA S[1,1] RI
DATA S[2,1] RI
DATA S[1,2] RI
DATA S[2,2] RI
SEG_LIST_BEGIN
SEG 30000 6000000000 201
SEG_LIST_END
BEGIN
7.50427E-1,5.18829E-1
-6.02531E-2,6.51130E-2
0.23780E-1,1.47422E-1
1.27311E-1,1.33812E-1
1.69517E-1,0.94230E-1
1.99691E-1,0.62774E-1
2.35900E-1,0.21057E-1
2.60391E-1,-4.09698E-2
2.49786E-1,-1.16928E-1
2.05886E-1,-1.83059E-1
1.27426E-1,-2.23480E-1
0.21911E-1,-2.03262E-1
-1.90124E-2,-1.36154E-1
-7.82585E-3,-5.81169E-2
5.22365E-2,-1.40857E-2
1.29890E-1,-2.04315E-2
2.02331E-1,-1.09359E-1
1.82678E-1,-2.40783E-1
0.68420E-1,-2.96905E-1
0.06561E-1,-3.09249E-1
-6.89849E-2,-3.36700E-1
-1.79412E-1,-3.41827E-1
-2.96905E-1,-3.07281E-1
-4.10736E-1,-2.20825E-1
-4.90448E-1,-1.00830E-1
-5.41320E-1,0.50415E-1
-5.42907E-1,2.12982E-1
-4.93133E-1,3.81835E-1
-3.97613E-1,5.39825E-1
-2.53448E-1,6.68731E-1
-5.93261E-2,7.48870E-1
1.55914E-1,7.80242E-1
3.59497E-1,7.39349E-1
5.58654E-1,6.45752E-1
7.05139E-1,5.08178E-1
8.16284E-1,3.50219E-1
8.75274E-1,1.79534E-1
9.00787E-1,0.05737E-1
8.86352E-1,-1.58508E-1
8.46008E-1,-3.06518E-1
7.74047E-1,-4.41436E-1
6.97296E-1,-5.48522E-1
5.97686E-1,-6.37847E-1
5.1297E-1,-7.11303E-1
4.01672E-1,-7.64495E-1
3.01025E-1,-8.20556E-1
1.96106E-1,-8.41339E-1
0.84808E-1,-8.66363E-1
-1.77612E-2,-8.63952E-1
-1.20910E-1,-8.60656E-1
-2.05017E-1,-8.34350E-1
-3.11401E-1,-7.99865E-1
-3.95752E-1,-7.61657E-1
-4.74426E-1,-7.06420E-1
-5.50659E-1,-6.50695E-1
-6.10961E-1,-5.76477E-1
-6.74560E-1,-5.07141E-1
-7.07397E-1,-4.36279E-1
-7.55004E-1,-3.46496E-1
-7.86651E-1,-2.67700E-1
-8.04138E-1,-1.72699E-1
-8.12286E-1,-8.90502E-2
-8.07586E-1,0.06622E-1
-8.04809E-1,0.88256E-1
-7.78137E-1,1.71295E-1
-7.58636E-1,2.58941E-1
-7.19909E-1,3.33984E-1
-6.75903E-1,4.07104E-1
-6.23016E-1,4.78668E-1
-5.64361E-1,5.38391E-1
-4.97863E-1,5.89904E-1
-4.28710E-1,6.37939E-1
-3.52905E-1,6.74652E-1
-2.82104E-1,7.01416E-1
-2.01385E-1,7.16491E-1
-1.20819E-1,7.36389E-1
-4.68444E-2,7.29553E-1
0.33325E-1,7.24639E-1
1.02966E-1,7.05993E-1
1.77307E-1,6.91772E-1
2.33825E-1,6.61682E-1
3.02490E-1,6.28173E-1
3.50830E-1,5.97351E-1
3.95202E-1,5.52673E-1
4.42321E-1,5.13122E-1
4.81140E-1,4.61914E-1
5.13885E-1,4.20135E-1
5.41931E-1,3.65295E-1
5.70098E-1,3.11401E-1
5.89233E-1,2.59704E-1
6.02539E-1,2.06726E-1
6.10534E-1,1.47216E-1
6.19934E-1,0.94360E-1
6.16882E-1,0.46325E-1
6.08245E-1,-3.57055E-3
5.93444E-1,-6.40564E-2
5.84442E-1,-1.11358E-1
5.56610E-1,-1.51733E-1
5.29785E-1,-2.01293E-1
5.00122E-1,-2.38891E-1
4.67376E-1,-2.71148E-1
4.31289E-1,-3.06518E-1
3.92257E-1,-3.34335E-1
3.55484E-1,-3.61877E-1
3.19549E-1,-3.76739E-1
2.72460E-1,-3.95172E-1
2.31048E-1,-4.08538E-1
1.88629E-1,-4.16107E-1
1.57623E-1,-4.16275E-1
1.16226E-1,-4.04586E-1
0.78964E-1,-4.01123E-1
0.48980E-1,-3.83941E-1
0.20690E-1,-3.66180E-1
-3.66210E-3,-3.44329E-1
-2.11792E-2,-3.34411E-1
-2.47497E-2,-3.16345E-1
-3.81774E-2,-3.04718E-1
-5.69305E-2,-3.33023E-1
-1.38275E-1,-3.25775E-1
-1.71875E-1,-2.56897E-1
-1.76376E-1,-2.09549E-1
-1.66870E-1,-1.83258E-1
-1.47613E-1,-1.60186E-1
-1.38107E-1,-1.46545E-1
-1.31912E-1,-1.46896E-1
-1.31973E-1,-1.47522E-1
-1.41883E-1,-1.44737E-1
-1.57707E-1,-1.36016E-1
-1.71127E-1,-1.18804E-1
-1.84951E-1,-9.26666E-2
-2.01515E-1,-6.73904E-2
-2.10380E-1,-4.19693E-2
-2.08801E-1,-4.34875E-3
-2.04734E-1,0.38017E-1
-1.92802E-1,0.70594E-1
-1.72744E-1,0.90438E-1
-1.47819E-1,1.0466E-1
-1.37069E-1,1.13830E-1
-1.24465E-1,1.12747E-1
-1.11541E-1,1.19644E-1
-1.09191E-1,1.27166E-1
-1.11038E-1,1.31225E-1
-1.05705E-1,1.31553E-1
-9.73663E-2,1.44943E-1
-1.06201E-1,1.60072E-1
-1.09054E-1,1.65588E-1
-1.11953E-1,1.82876E-1
-1.16035E-1,2.01713E-1
-1.18248E-1,2.25379E-1
-1.12991E-1,2.52471E-1
-1.10275E-1,2.93228E-1
-1.15066E-1,3.18832E-1
-8.81805E-2,3.42620E-1
-6.27746E-2,3.74908E-1
-2.48718E-2,3.98330E-1
0.09323E-1,4.21981E-1
0.46188E-1,4.38415E-1
0.76629E-1,4.52636E-1
1.28631E-1,4.47265E-1
1.95709E-1,4.63714E-1
2.41607E-1,4.63836E-1
2.97088E-1,4.47647E-1
3.55438E-1,4.30389E-1
4.02008E-1,4.13665E-1
4.37866E-1,3.72375E-1
4.92401E-1,3.21228E-1
5.30334E-1,2.78900E-1
5.53283E-1,2.26837E-1
5.78399E-1,1.59515E-1
5.99426E-1,1.06658E-1
6.01440E-1,0.55419E-1
6.04248E-1,-6.71386E-3
6.11358E-1,-6.69555E-2
6.03607E-1,-1.15020E-1
5.85998E-1,-1.80694E-1
5.63964E-1,-2.43042E-1
5.30304E-1,-3.00628E-1
4.97116E-1,-3.51440E-1
4.54864E-1,-3.98864E-1
4.19677E-1,-4.33715E-1
3.67340E-1,-4.59625E-1
3.21685E-1,-4.94537E-1
2.90588E-1,-5.1651E-1
2.63732E-1,-5.39093E-1
2.33734E-1,-5.63446E-1
1.81243E-1,-6.14898E-1
1.18774E-1,-6.43798E-1
0.34606E-1,-6.54846E-1
-3.88793E-2,-6.5979E-1
-1.05896E-1,-6.59851E-1
-1.67114E-1,-6.45202E-1
-2.41699E-1,-6.16821E-1
-3.04016E-1,-6.06567E-1
-3.60961E-1,-5.69030E-1
-4.28466E-1,-5.27587E-1
-4.88830E-1,-4.98413E-1
-5.30487E-1,-4.53155E-1
-5.85235E-1,-3.90777E-1
-6.362E-1,-3.56353E-1
-6.61895E-1,-3.02185E-1
-6.99249E-1,-2.31018E-1
END
BEGIN
1.13354E0,-4.11987E-1
-3.15361E1,1.83408E1
-1.82656E1,3.42812E1
6.32812E0,4.08183E1
3.02636E1,2.86835E1
4.05214E1,5.72070E0
3.66367E1,-1.86914E1
1.81210E1,-3.77265E1
-8.40234E0,-4.01953E1
-2.99941E1,-2.64667E1
-3.99453E1,-2.50585E0
-3.21074E1,2.39726E1
-7.74218E0,3.83437E1
1.96650E1,3.17929E1
3.45468E1,8.58593E0
2.93779E1,-1.96132E1
-3.79296E0,-3.79863E1
-3.05078E1,1.08007E0
4.21875E-1,1.06884E1
1.70715E0,1.12927E0
3.04168E-1,1.89209E-1
7.19413E-2,1.22955E-1
0.40779E-2,6.99119E-2
-3.77578E-2,1.67121E-2
-3.34167E-2,7.51647E-2
-9.23156E-3,6.85005E-2
1.194E-2,5.15594E-2
1.69916E-2,2.53820E-2
5.80215E-3,3.17430E-3
-1.39794E-2,-7.11917E-3
-3.35331E-2,0.54340E-2
-4.11262E-2,2.54077E-2
-3.57780E-2,4.65107E-2
-1.83429E-2,6.16111E-2
0.51918E-2,6.78329E-2
2.56977E-2,5.97209E-2
4.03766E-2,4.86640E-2
4.80880E-2,3.62739E-2
5.29594E-2,2.63671E-2
6.19812E-2,0.97808E-2
6.75315E-2,-7.72476E-3
6.36634E-2,-3.44505E-2
4.52404E-2,-5.54008E-2
2.15034E-2,-6.33430E-2
-4.17327E-3,-6.07109E-2
-2.10075E-2,-5.32703E-2
-3.21464E-2,-3.88793E-2
-3.60908E-2,-2.30865E-2
-3.87725E-2,-1.23100E-2
-3.63292E-2,0.00209E-2
-3.05271E-2,0.86765E-2
-2.35166E-2,1.54390E-2
-1.70583E-2,1.89666E-2
-1.19247E-2,2.13909E-2
-3.75556E-3,1.84316E-2
-6.08444E-4,2.17151E-2
0.50373E-2,1.69391E-2
7.52162E-3,1.32312E-2
1.43098E-2,1.22985E-2
1.35321E-2,3.90100E-3
1.58700E-2,0.67148E-2
1.53265E-2,-1.15394E-4
8.53967E-3,-8.93592E-4
7.26890E-3,-5.88321E-3
6.07013E-3,-6.95133E-3
5.83839E-3,-4.42218E-3
3.61871E-3,-7.23743E-3
3.80587E-3,-1.25861E-3
-2.94780E-3,-2.84075E-4
-1.59746E-3,-1.24287E-3
1.40404E-3,1.24335E-3
4.86612E-3,2.91609E-3
7.21883E-3,-2.37202E-3
2.40850E-3,-1.01552E-2
-3.39031E-4,-5.49745E-3
-8.63790E-4,-6.80279E-3
-9.55438E-3,-5.49459E-3
-4.76074E-3,-5.85508E-3
-7.42626E-3,-1.32513E-3
-2.38132E-3,-9.03606E-4
-7.09962E-3,0.01144E-3
-5.49101E-3,1.91593E-3
-5.21254E-3,3.23462E-3
-3.78727E-3,5.38301E-3
-9.86099E-4,1.93774E-3
-6.47640E-3,5.21326E-3
-1.19209E-5,5.96427E-3
1.53803E-3,3.09920E-3
-7.13586E-4,2.69031E-3
2.23827E-3,7.66515E-3
1.62482E-3,6.17051E-3
6.68621E-3,6.31809E-3
1.02272E-2,1.34658E-3
6.53743E-3,2.41613E-3
2.55239E-3,-2.75039E-3
6.26176E-4,-2.77906E-4
2.92491E-3,-9.74774E-4
2.86984E-3,-1.64282E-3
1.13058E-3,-5.23066E-3
-8.78334E-4,-5.85365E-3
9.08136E-4,1.53243E-3
2.30336E-3,3.15284E-3
3.63254E-3,4.09841E-3
1.13902E-2,0.27990E-3
1.26910E-2,-8.84532E-3
4.52995E-3,-1.40743E-2
-1.95694E-3,-1.41973E-2
-6.83403E-3,-9.91821E-3
-7.09724E-3,-5.84602E-3
-9.04989E-3,-2.93397E-3
-6.87289E-3,-1.69086E-3
-8.98551E-3,1.88541E-3
-6.64424E-3,4.33826E-3
-3.56149E-3,7.20214E-3
3.13854E-3,8.83102E-3
8.56876E-3,1.01137E-2
1.96323E-2,0.41866E-2
3.37810E-2,-1.87244E-2
-1.68609E-3,-4.98008E-2
-2.80571E-2,-3.08990E-2
-3.26461E-2,-1.60675E-2
-3.49178E-2,-1.06620E-2
-4.23393E-2,0.15945E-2
-4.56199E-2,1.80625E-2
-3.97644E-2,4.04033E-2
-2.24838E-2,5.75599E-2
0.11253E-2,6.59446E-2
3.24630E-2,6.32247E-2
5.26504E-2,3.81622E-2
5.78460E-2,1.67484E-2
5.39894E-2,-4.32777E-3
4.69989E-2,-2.04372E-2
3.50475E-2,-3.15246E-2
2.23350E-2,-3.88412E-2
0.78201E-2,-4.07161E-2
-6.32667E-3,-3.60069E-2
-1.66816E-2,-3.19976E-2
-2.43415E-2,-2.03704E-2
-2.90508E-2,-1.16252E-2
-2.75745E-2,-1.22642E-3
-2.49652E-2,0.81148E-2
-1.83897E-2,1.78337E-2
-8.99887E-3,1.98373E-2
-1.9207E-3,2.44817E-2
0.58069E-2,2.44045E-2
1.35107E-2,2.10428E-2
2.32982E-2,1.92108E-2
2.73056E-2,1.17702E-2
3.01075E-2,0.67195E-2
3.36341E-2,-3.08799E-3
4.05502E-2,-1.28078E-2
3.52115E-2,-2.43911E-2
3.10840E-2,-4.01020E-2
2.19478E-2,-5.14049E-2
0.68912E-2,-6.20861E-2
-1.35231E-2,-6.27822E-2
-3.05938E-2,-5.59234E-2
-4.06074E-2,-4.48646E-2
-4.68864E-2,-3.99971E-2
-6.37168E-2,-3.47862E-2
-7.64884E-2,-1.80740E-2
-7.91969E-2,0.49018E-2
-7.57255E-2,2.47726E-2
-7.14340E-2,4.06379E-2
-6.14967E-2,5.54351E-2
-5.46150E-2,7.02667E-2
-3.42483E-2,8.48579E-2
-1.40304E-2,9.45930E-2
1.18713E-2,9.58786E-2
3.81355E-2,9.92469E-2
6.44187E-2,8.53653E-2
8.49304E-2,6.37855E-2
1.01413E-1,3.46794E-2
1.07818E-1,1.11694E-2
9.86938E-2,-1.68991E-2
8.91265E-2,-4.17099E-2
7.14721E-2,-6.44149E-2
4.87556E-2,-7.01866E-2
2.79274E-2,-7.84683E-2
0.47454E-2,-8.03718E-2
-1.22528E-2,-7.17887E-2
-3.19232E-2,-6.15024E-2
-4.66117E-2,-4.41646E-2
-5.89523E-2,-1.78012E-2
-4.07600E-2,0.26741E-2
-2.99978E-2,-2.94303E-3
-2.49157E-2,0.43516E-2
-1.60293E-2,0.61826E-2
-1.64518E-2,0.93441E-2
-1.06048E-2,8.17775E-3
-4.92048E-3,6.54172E-3
-3.18050E-3,1.29289E-2
2.46381E-3,7.29084E-3
6.41560E-3,1.39832E-3
4.20975E-3,-1.35636E-3
4.33445E-3,-8.06427E-3
3.02410E-3,-9.78183E-3
2.37464E-3,-1.19228E-2
0.01421E-2,-1.85308E-2
-5.42163E-3,-1.87397E-2
-1.35316E-2,-2.12326E-2
END
BEGIN
-1.73072E-2,-8.19969E-2
9.36150E-4,1.06579E-3
1.79147E-3,6.58392E-4
1.89304E-3,-5.58495E-4
7.78585E-4,-4.36902E-4
2.08437E-3,-6.17146E-4
1.55067E-3,-8.71181E-4
2.37250E-3,-1.22726E-3
1.36339E-3,-1.52146E-3
1.78659E-3,-1.94025E-3
0.89085E-3,-2.30276E-3
0.55861E-3,-2.93517E-3
1.23715E-3,-2.54011E-3
1.02496E-3,-2.00057E-3
1.25747E-3,-1.22278E-3
1.61492E-3,-9.65714E-4
1.56599E-3,-1.07282E-3
1.34182E-3,-2.16007E-3
1.57320E-3,-2.03347E-3
2.43973E-3,-3.07273E-3
3.32379E-3,-1.36494E-3
1.86991E-3,-9.50574E-4
3.88455E-3,-4.77385E-3
0.86631E-2,-4.44297E-2
-6.44207E-4,8.01038E-3
-2.92635E-3,2.75862E-3
-1.79767E-4,3.12459E-3
2.61056E-3,1.09064E-3
3.19051E-3,1.02543E-3
2.12061E-3,-1.4534E-3
3.10850E-3,-1.18219E-3
1.83022E-3,-2.16400E-3
0.04959E-3,-1.95920E-3
-6.30617E-4,-4.36544E-3
4.75764E-4,-1.71136E-3
-2.75731E-3,-1.66559E-3
-1.22457E-3,3.38196E-4
-4.48405E-4,-7.41154E-4
-3.31568E-3,-4.68969E-4
-1.31905E-3,2.40755E-3
-2.45094E-4,5.90539E-3
0.42414E-3,4.09507E-3
2.41231E-3,2.71427E-3
3.29184E-3,1.72936E-3
1.89518E-3,1.74999E-3
2.02274E-3,-5.90443E-4
1.97887E-3,-1.03890E-3
2.24876E-3,-2.67529E-3
1.77633E-3,-1.79183E-3
2.26330E-3,-2.74872E-3
2.50053E-3,-1.68693E-3
1.06191E-3,-2.75516E-3
0.57315E-3,-2.94041E-3
-3.36051E-4,-2.34615E-3
-8.70466E-4,-2.71797E-3
0.85949E-3,-2.13503E-3
-2.22635E-3,-3.21817E-3
-4.17923E-3,-4.30107E-4
-1.76620E-3,-3.79371E-3
-2.96449E-3,-4.94837E-4
-4.47702E-3,0.56600E-3
-3.01158E-3,-6.17861E-4
-3.86309E-3,-9.20176E-4
-3.46899E-4,-3.07774E-3
-5.25236E-3,3.18241E-3
1.47743E-2,2.43053E-2
1.62307E-1,0.13015E-1
4.38690E-2,-2.77404E-2
1.91488E-2,-1.38540E-2
-1.57833E-3,7.78102E-3
-9.39369E-4,5.44309E-3
-2.23159E-3,-2.03371E-4
2.90799E-3,4.6978E-3
3.48317E-3,3.10218E-3
4.00948E-3,-1.69038E-3
2.28941E-3,-2.04563E-3
2.29954E-3,4.31513E-3
2.58731E-3,-1.10924E-3
2.86173E-3,0.72240E-3
3.59153E-3,-2.93111E-3
0.15902E-3,-2.40743E-3
1.23894E-3,-2.44200E-3
2.37345E-3,-4.47678E-3
5.38301E-3,-4.13656E-3
5.50556E-3,-7.21073E-3
3.95011E-3,-5.86605E-3
2.53105E-3,-5.54847E-3
-4.79072E-6,1.34088E-4
-3.19814E-3,-2.33936E-3
5.45120E-3,0.80490E-3
-4.18329E-3,-7.07674E-3
-1.82914E-3,-8.56447E-3
-1.02529E-2,-1.48677E-3
-4.97317E-3,-2.73466E-3
-5.24807E-3,-2.63190E-3
-6.42299E-3,-5.61547E-3
-8.11004E-3,0.64992E-3
-6.71291E-3,-2.95496E-3
-6.20317E-3,-3.28159E-3
-1.11827E-2,-3.82518E-3
-9.26017E-3,-3.15237E-3
-1.87759E-2,-3.96633E-3
-2.68793E-2,-3.87096E-3
-2.77872E-2,1.64012E-2
-2.73056E-2,4.78763E-2
-1.06964E-2,6.27822E-2
1.03797E-2,3.78494E-2
2.66838E-2,2.44007E-2
2.80475E-2,0.62522E-2
3.09267E-2,-1.70803E-3
2.84643E-2,-1.79595E-2
3.76339E-2,-1.72119E-2
3.67336E-2,-2.56614E-2
2.51464E-2,-3.83873E-2
0.39596E-2,-5.34133E-2
-2.26440E-2,-5.80596E-2
-6.28891E-2,-3.62625E-2
-8.87680E-2,1.83982E-2
-1.05114E-1,7.15026E-2
-6.60247E-2,1.26899E-1
-2.70996E-2,1.51809E-1
0.00366E-1,2.03018E-1
0.97358E-1,1.95121E-1
1.72973E-1,0.88066E-1
2.16842E-1,-1.90734E-4
2.30911E-1,-8.54263E-2
1.76475E-1,-1.47277E-1
1.02836E-1,-2.12715E-1
0.44555E-1,-2.79541E-1
-2.70767E-2,-2.43446E-1
-9.17739E-2,-1.74636E-1
-1.70471E-1,-1.34643E-1
-1.86309E-1,-7.44018E-2
-1.65863E-1,-1.52206E-2
-1.49192E-1,0.34347E-1
-1.28807E-1,0.74119E-1
-8.04672E-2,1.09336E-1
-4.73327E-2,1.20315E-1
-1.96685E-2,1.05476E-1
2.44674E-2,6.50253E-2
0.86727E-2,4.35028E-2
-6.32476E-3,3.63712E-2
-1.51634E-2,1.68495E-2
-1.26161E-2,7.20262E-3
-1.05199E-2,8.55732E-3
-2.83060E-2,1.25007E-2
-4.33406E-2,2.08816E-2
-4.10232E-2,4.38346E-2
-5.52749E-2,4.53376E-2
-5.20553E-2,6.01806E-2
-4.67948E-2,9.52415E-2
-4.17327E-2,1.00444E-1
-2.76031E-2,1.23680E-1
0.37658E-1,1.39114E-1
0.99525E-1,1.74247E-1
1.27037E-1,2.04544E-1
1.54434E-1,1.63742E-1
1.80587E-1,1.35009E-1
1.99539E-1,1.41967E-1
2.60864E-1,1.16088E-1
3.05450E-1,0.49774E-1
3.62014E-1,-5.54504E-2
3.77960E-1,-1.67541E-1
4.09317E-1,-2.24197E-1
4.01992E-1,-3.39538E-1
2.90573E-1,-4.62753E-1
2.43835E-1,-5.75103E-1
0.97808E-1,-7.58667E-1
-1.29974E-1,-7.64373E-1
-3.61358E-1,-7.73193E-1
-6.38153E-1,-6.74102E-1
-8.50647E-1,-3.26599E-1
-1.06793E0,0.28564E-1
-1.05413E0,2.95959E-1
-8.38928E-1,6.90979E-1
-4.81262E-1,9.02648E-1
-2.01477E-1,1.15679E0
1.20605E-1,1.08813E0
4.27459E-1,8.48327E-1
7.03643E-1,7.25280E-1
9.67498E-1,3.37982E-1
1.03692E0,0.67199E-1
8.97125E-1,-1.79534E-1
6.38549E-1,-5.28991E-1
2.81311E-1,-6.89697E-1
0.73120E-1,-6.94519E-1
-1.13952E-1,-5.45867E-1
-1.45767E-1,-2.96234E-1
-2.62985E-1,-2.21405E-1
-2.53112E-1,-3.9505E-2
-1.23260E-1,4.28848E-2
-1.45034E-1,0.75965E-1
-7.27691E-2,9.63745E-2
3.83720E-2,5.61714E-2
7.04879E-2,1.43890E-2
7.85446E-2,1.81808E-2
7.33375E-2,-3.50189E-2
8.79592E-2,-5.61943E-2
9.67941E-2,-1.14959E-1
0.83877E-1,-2.04818E-1
0.67352E-1,-2.23068E-1
END
BEGIN
-5.89416E-1,-5.78155E-1
-1.32492E-1,-2.12204E-1
-2.17590E-2,-3.14102E-1
0.17715E-1,-2.62710E-1
-7.82623E-2,-2.44812E-1
-8.92639E-3,-3.22052E-1
1.23474E-1,-2.86346E-1
2.64251E-1,-4.81201E-1
5.53772E-1,-6.19384E-1
6.10351E-1,-3.68652E-1
5.28076E-1,-2.57476E-1
6.17553E-1,-3.30383E-1
8.62976E-1,-2.64465E-1
9.80224E-1,-1.60553E-1
1.07489E0,-4.71801E-2
1.05053E0,0.74890E-1
1.01281E0,1.47216E-1
1.07238E0,1.54907E-1
1.09027E0,1.03088E-1
9.06280E-1,3.25561E-1
7.56958E-1,4.19250E-1
7.62878E-1,6.23352E-1
1.11724E0,1.24829E0
1.48808E1,9.91015E0
-2.05444E0,-2.62731E0
-1.03833E0,-1.80596E0
-6.51245E-1,-1.26617E0
-7.34741E-1,-1.00610E0
-8.66027E-1,-1.00048E0
-8.49182E-1,-9.63195E-1
-9.8703E-1,-8.59649E-1
-1.23919E0,-9.16503E-1
-1.32959E0,-1.14325E0
-1.24816E0,-1.15551E0
-1.37829E0,-9.66796E-1
-1.58300E0,-7.33520E-1
-1.80603E0,-4.45556E-1
-1.83227E0,-2.52197E-1
-1.65246E0,1.27075E-1
-1.57269E0,5.89538E-1
-1.75341E0,7.47070E-1
-1.56860E0,4.37011E-1
-1.31549E0,4.60937E-1
-1.29736E0,4.75891E-1
-1.19415E0,3.14697E-1
-1.05328E0,3.57971E-1
-1.05957E0,4.70581E-1
-1.20275E0,4.11132E-1
-1.16424E0,3.33190E-1
-1.22705E0,3.37341E-1
-1.22686E0,1.57409E-1
-1.08728E0,1.40014E-1
-1.05560E0,1.80847E-1
-1.06317E0,2.00195E-1
-1.05432E0,2.26928E-1
-1.09515E0,2.04467E-1
-1.13391E0,1.62475E-1
-1.1427E0,0.70983E-1
-1.15710E0,-2.92968E-3
-1.08416E0,-1.46728E-1
-1.00323E0,-9.93652E-2
-1.06738E0,-3.75366E-2
-1.20867E0,0.71716E-1
-1.68292E0,2.93823E-1
-2.70153E0,2.83813E-1
-5.28564E0,2.28076E0
6.48046E0,1.74335E1
3.76684E0,4.39843E0
6.34643E-1,2.96960E0
0.69641E-1,1.16442E0
0.84808E-1,8.13568E-1
-1.09375E-1,5.91644E-1
-1.14852E-1,3.48388E-1
-9.18731E-2,2.63946E-1
-1.02035E-1,2.15469E-1
-1.65824E-1,1.99646E-1
-2.53311E-1,1.26541E-1
-3.29681E-1,-6.10351E-3
-2.92877E-1,-1.20422E-1
-2.94921E-1,-1.69525E-1
-3.17627E-1,-2.12249E-1
-3.89648E-1,-2.60467E-1
-5.06439E-1,-3.69812E-1
-5.42175E-1,-6.88079E-1
-4.25048E-1,-7.26440E-1
-5.92651E-1,-8.29711E-1
-5.42480E-1,-1.22766E0
-4.52392E-1,-1.24743E0
-7.88208E-1,-9.96582E-1
-1.26867E0,-7.09594E-1
-1.58435E0,-3.98681E-1
-1.52063E0,-9.85107E-2
-1.59472E0,0.32836E-1
-1.40313E0,-1.80358E-1
-1.19928E0,-6.42700E-2
-1.20300E0,-8.48388E-3
-1.24987E0,-9.06372E-2
-1.12493E0,-2.27050E-1
-1.06787E0,-1.75231E-1
-1.09826E0,-2.03613E-1
-1.14141E0,-2.33398E-1
-1.17236E0,-2.69531E-1
-1.19818E0,-2.97912E-1
-1.28894E0,-1.92627E-1
-1.47930E0,-1.87805E-1
-1.33313E0,-3.29101E-1
-1.13238E0,-2.49206E-1
-1.15130E0,-1.77551E-1
-1.20605E0,-1.62780E-1
-1.25293E0,-7.62329E-2
-1.45910E0,0.96801E-1
-1.77636E0,-4.29687E-2
-1.63525E0,-3.28002E-1
-1.4198E0,-2.30835E-1
-1.38452E0,-1.52465E-1
-1.30078E0,-4.12597E-2
-1.24316E0,1.53564E-1
-1.21154E0,3.13781E-1
-1.19470E0,3.68774E-1
-1.21325E0,2.90344E-1
-1.28356E0,2.13745E-1
-1.36651E0,1.16699E-1
-1.15618E0,1.63513E-1
-9.78149E-1,2.37243E-1
-8.97613E-1,2.84057E-1
-8.68225E-1,2.95013E-1
-8.28491E-1,2.51007E-1
-8.21960E-1,2.42065E-1
-8.38623E-1,1.92260E-1
-8.04473E-1,1.18225E-1
-7.14202E-1,0.61065E-1
-6.71752E-1,0.57830E-1
-6.81640E-1,0.32959E-1
-6.82434E-1,-4.37316E-2
-6.60369E-1,-9.61608E-2
-6.56829E-1,-1.08856E-1
-7.12524E-1,-1.30828E-1
-8.01452E-1,-2.09716E-1
-8.20495E-1,-3.10241E-1
-8.19274E-1,-3.04321E-1
-9.15527E-1,-2.93273E-1
-9.23126E-1,-3.71307E-1
-8.53881E-1,-3.10424E-1
-8.82995E-1,-2.20153E-1
-8.88732E-1,-2.13195E-1
-8.11645E-1,-1.45324E-1
-8.76983E-1,-3.02429E-2
-1.02905E0,-8.34350E-2
-9.30847E-1,-2.71667E-1
-7.82165E-1,-1.80481E-1
-8.71643E-1,-1.31103E-1
-8.63037E-1,-2.58361E-1
-7.34985E-1,-2.29003E-1
-7.71545E-1,-1.10961E-1
-9.17541E-1,-1.23504E-1
-9.34204E-1,-2.50305E-1
-9.17236E-1,-2.60437E-1
-9.50500E-1,-3.29284E-1
-8.81469E-1,-3.79638E-1
-8.68408E-1,-3.41735E-1
-9.34814E-1,-3.39721E-1
-9.56329E-1,-3.67858E-1
-9.88769E-1,-3.09875E-1
-1.11340E0,-3.18176E-1
-1.12506E0,-3.84460E-1
-1.13269E0,-3.26477E-1
-1.23565E0,-2.96814E-1
-1.25524E0,-3.11523E-1
-1.20959E0,-2.88208E-1
-1.21917E0,-2.14416E-1
-1.19012E0,-1.93054E-1
-1.11541E0,-8.23974E-2
-1.18072E0,0.79650E-1
-1.22198E0,0.60424E-1
-1.13836E0,0.73730E-1
-1.01928E0,1.74316E-1
-1.05279E0,2.98156E-1
-1.10504E0,1.88659E-1
-9.90600E-1,0.99609E-1
-8.93737E-1,1.52954E-1
-9.03503E-1,2.05505E-1
-9.92095E-1,1.63970E-1
-9.0271E-1,0.49408E-1
-8.07373E-1,1.14776E-1
-8.24249E-1,2.18017E-1
-9.13391E-1,2.01904E-1
-8.30322E-1,1.09741E-1
-7.42431E-1,1.40258E-1
-7.15789E-1,1.04095E-1
-5.86792E-1,1.01470E-1
-5.81695E-1,1.48010E-1
-6.18713E-1,0.54473E-1
-5.40741E-1,-2.18200E-2
-5.41778E-1,-1.02539E-2
-6.55548E-1,-1.16577E-1
-5.25970E-1,-3.36822E-1
-3.91250E-1,-2.96981E-1
-4.39361E-1,-2.69470E-1
-4.97558E-1,-3.40026E-1
-5.21026E-1,-4.50531E-1
-4.82574E-1,-5.20507E-1
END

