CITIFILE A.01.00
#NA VERSION HP8753ES.07.64: Feb 23, 2000
NAME FORMATTED
VAR FREQ MAG 201
DATA S[1,1] RI
DATA S[2,1] RI
DATA S[1,2] RI
DATA S[2,2] RI
SEG_LIST_BEGIN
SEG 30000 6000000000 201
SEG_LIST_END
BEGIN
-7.97271E-1,0E0
-2.10410E1,0E0
-1.65175E1,0E0
-1.46709E1,0E0
-1.42465E1,0E0
-1.35839E1,0E0
-1.25112E1,0E0
-1.15815E1,0E0
-1.11884E1,0E0
-1.11977E1,0E0
-1.17929E1,0E0
-1.37890E1,0E0
-1.72363E1,0E0
-2.46357E1,0E0
-2.53359E1,0E0
-1.76230E1,0E0
-1.27661E1,0E0
-1.03930E1,0E0
-1.03232E1,0E0
-1.01918E1,0E0
-9.27685E0,0E0
-8.26757E0,0E0
-7.38574E0,0E0
-6.62622E0,0E0
-6.00854E0,0E0
-5.29370E0,0E0
-4.68383E0,0E0
-4.10083E0,0E0
-3.47265E0,0E0
-2.91223E0,0E0
-2.48486E0,0E0
-1.98541E0,0E0
-1.70172E0,0E0
-1.37225E0,0E0
-1.21789E0,0E0
-1.02941E0,0E0
-9.78179E-1,0E0
-9.07440E-1,0E0
-9.11193E-1,0E0
-9.16900E-1,0E0
-1.00177E0,0E0
-1.03973E0,0E0
-1.16870E0,0E0
-1.14025E0,0E0
-1.27392E0,0E0
-1.16955E0,0E0
-1.27093E0,0E0
-1.20459E0,0E0
-1.26843E0,0E0
-1.21862E0,0E0
-1.31848E0,0E0
-1.32684E0,0E0
-1.32690E0,0E0
-1.40203E0,0E0
-1.38690E0,0E0
-1.51452E0,0E0
-1.47387E0,0E0
-1.60687E0,0E0
-1.61102E0,0E0
-1.60845E0,0E0
-1.69763E0,0E0
-1.75402E0,0E0
-1.85601E0,0E0
-1.83429E0,0E0
-1.97345E0,0E0
-1.92077E0,0E0
-2.00805E0,0E0
-2.05810E0,0E0
-2.09521E0,0E0
-2.15844E0,0E0
-2.24877E0,0E0
-2.28601E0,0E0
-2.36816E0,0E0
-2.42944E0,0E0
-2.56567E0,0E0
-2.54260E0,0E0
-2.72119E0,0E0
-2.78857E0,0E0
-2.93273E0,0E0
-2.92456E0,0E0
-3.07605E0,0E0
-3.13281E0,0E0
-3.18847E0,0E0
-3.35705E0,0E0
-3.38256E0,0E0
-3.51782E0,0E0
-3.55969E0,0E0
-3.69445E0,0E0
-3.74719E0,0E0
-3.82336E0,0E0
-3.91711E0,0E0
-4.04052E0,0E0
-4.05371E0,0E0
-4.17163E0,0E0
-4.31835E0,0E0
-4.48217E0,0E0
-4.51049E0,0E0
-4.77783E0,0E0
-4.93261E0,0E0
-5.12622E0,0E0
-5.34692E0,0E0
-5.52929E0,0E0
-5.75708E0,0E0
-5.89526E0,0E0
-6.12548E0,0E0
-6.37548E0,0E0
-6.57031E0,0E0
-6.80444E0,0E0
-7.03076E0,0E0
-7.51562E0,0E0
-7.76953E0,0E0
-8.24511E0,0E0
-8.71240E0,0E0
-9.26025E0,0E0
-9.49707E0,0E0
-9.97070E0,0E0
-1.02548E1,0E0
-9.42578E0,0E0
-9.02246E0,0E0
-1.01987E1,0E0
-1.12485E1,0E0
-1.21167E1,0E0
-1.32377E1,0E0
-1.39204E1,0E0
-1.40918E1,0E0
-1.40698E1,0E0
-1.38637E1,0E0
-1.36279E1,0E0
-1.36254E1,0E0
-1.36865E1,0E0
-1.34536E1,0E0
-1.33706E1,0E0
-1.36035E1,0E0
-1.36293E1,0E0
-1.37514E1,0E0
-1.42002E1,0E0
-1.48408E1,0E0
-1.49834E1,0E0
-1.54970E1,0E0
-1.57260E1,0E0
-1.55141E1,0E0
-1.52949E1,0E0
-1.54550E1,0E0
-1.51586E1,0E0
-1.43300E1,0E0
-1.40551E1,0E0
-1.3375E1,0E0
-1.26640E1,0E0
-1.18862E1,0E0
-1.11630E1,0E0
-1.00815E1,0E0
-9.39746E0,0E0
-9.02539E0,0E0
-8.40185E0,0E0
-7.97851E0,0E0
-7.49218E0,0E0
-7.11450E0,0E0
-6.76245E0,0E0
-6.64379E0,0E0
-5.96337E0,0E0
-5.63012E0,0E0
-5.39672E0,0E0
-5.06469E0,0E0
-4.77929E0,0E0
-4.80981E0,0E0
-4.61377E0,0E0
-4.44873E0,0E0
-4.46655E0,0E0
-4.43725E0,0E0
-4.31005E0,0E0
-4.37963E0,0E0
-4.37524E0,0E0
-4.22241E0,0E0
-4.23022E0,0E0
-4.24780E0,0E0
-4.23535E0,0E0
-4.29931E0,0E0
-4.31054E0,0E0
-4.36547E0,0E0
-4.38623E0,0E0
-4.60693E0,0E0
-4.58374E0,0E0
-4.54418E0,0E0
-4.43505E0,0E0
-4.29345E0,0E0
-3.86218E0,0E0
-3.67981E0,0E0
-3.66516E0,0E0
-3.59692E0,0E0
-3.50073E0,0E0
-3.52417E0,0E0
-3.57653E0,0E0
-3.36914E0,0E0
-3.42871E0,0E0
-3.35437E0,0E0
-3.12146E0,0E0
-3.12695E0,0E0
-3.05224E0,0E0
-2.74316E0,0E0
-2.76208E0,0E0
-2.65759E0,0E0
END
BEGIN
1.62750E0,0E0
3.12412E1,0E0
3.17861E1,0E0
3.23183E1,0E0
3.24003E1,0E0
3.22382E1,0E0
3.22812E1,0E0
3.24335E1,0E0
3.22675E1,0E0
3.20410E1,0E0
3.20449E1,0E0
3.20546E1,0E0
3.18466E1,0E0
3.14531E1,0E0
3.10283E1,0E0
3.09609E1,0E0
3.16347E1,0E0
2.96933E1,0E0
2.05849E1,0E0
6.22168E0,0E0
-8.91748E0,0E0
-1.69267E1,0E0
-2.30947E1,0E0
-2.76835E1,0E0
-2.16972E1,0E0
-2.32089E1,0E0
-2.55273E1,0E0
-3.03017E1,0E0
-4.35917E1,0E0
-3.60898E1,0E0
-2.93789E1,0E0
-2.63144E1,0E0
-2.46308E1,0E0
-2.38388E1,0E0
-2.33466E1,0E0
-2.37402E1,0E0
-2.39814E1,0E0
-2.44033E1,0E0
-2.45595E1,0E0
-2.40488E1,0E0
-2.33535E1,0E0
-2.28076E1,0E0
-2.29111E1,0E0
-2.34931E1,0E0
-2.43144E1,0E0
-2.48427E1,0E0
-2.59433E1,0E0
-2.73632E1,0E0
-2.78125E1,0E0
-2.87949E1,0E0
-2.99697E1,0E0
-3.10166E1,0E0
-3.18662E1,0E0
-3.22207E1,0E0
-3.45136E1,0E0
-3.32617E1,0E0
-3.50546E1,0E0
-3.63535E1,0E0
-3.44863E1,0E0
-3.70273E1,0E0
-3.52734E1,0E0
-3.62910E1,0E0
-4.13242E1,0E0
-4.05839E1,0E0
-4.06992E1,0E0
-4.27050E1,0E0
-4.18398E1,0E0
-4.79414E1,0E0
-5.05703E1,0E0
-5.38769E1,0E0
-5.45390E1,0E0
-4.49257E1,0E0
-4.23867E1,0E0
-3.96289E1,0E0
-4.51816E1,0E0
-4.32773E1,0E0
-3.91562E1,0E0
-4.24472E1,0E0
-4.24492E1,0E0
-5.18808E1,0E0
-4.29765E1,0E0
-4.47089E1,0E0
-4.42460E1,0E0
-4.36347E1,0E0
-5.32558E1,0E0
-4.16054E1,0E0
-4.44902E1,0E0
-4.92207E1,0E0
-5.11093E1,0E0
-4.19550E1,0E0
-4.39042E1,0E0
-4.07265E1,0E0
-3.97304E1,0E0
-4.31367E1,0E0
-4.85156E1,0E0
-6.32871E1,0E0
-5.02207E1,0E0
-4.96132E1,0E0
-4.54316E1,0E0
-4.45566E1,0E0
-5.49863E1,0E0
-4.81699E1,0E0
-4.52304E1,0E0
-3.88671E1,0E0
-3.62109E1,0E0
-3.66035E1,0E0
-3.6875E1,0E0
-3.83847E1,0E0
-4.07304E1,0E0
-4.04335E1,0E0
-4.30019E1,0E0
-4.07421E1,0E0
-4.20097E1,0E0
-4.19023E1,0E0
-4.05644E1,0E0
-3.75527E1,0E0
-3.39492E1,0E0
-2.82636E1,0E0
-2.60507E1,0E0
-2.75898E1,0E0
-2.87822E1,0E0
-2.87529E1,0E0
-2.74599E1,0E0
-2.61845E1,0E0
-2.49306E1,0E0
-2.41816E1,0E0
-2.36152E1,0E0
-2.29667E1,0E0
-2.37392E1,0E0
-2.44052E1,0E0
-2.53261E1,0E0
-2.58066E1,0E0
-2.65332E1,0E0
-2.69736E1,0E0
-2.76474E1,0E0
-2.87412E1,0E0
-2.88544E1,0E0
-2.99677E1,0E0
-3.00918E1,0E0
-3.11816E1,0E0
-3.16171E1,0E0
-3.18300E1,0E0
-3.32382E1,0E0
-3.21972E1,0E0
-3.20117E1,0E0
-3.20390E1,0E0
-3.04013E1,0E0
-3.05351E1,0E0
-3.02158E1,0E0
-2.94287E1,0E0
-2.74277E1,0E0
-2.73642E1,0E0
-2.58935E1,0E0
-2.50527E1,0E0
-2.40878E1,0E0
-2.38466E1,0E0
-2.39121E1,0E0
-2.43632E1,0E0
-2.42050E1,0E0
-2.27822E1,0E0
-2.20927E1,0E0
-2.20097E1,0E0
-2.19736E1,0E0
-2.17050E1,0E0
-2.16406E1,0E0
-2.10126E1,0E0
-2.07714E1,0E0
-2.03886E1,0E0
-2.02998E1,0E0
-1.94677E1,0E0
-1.94179E1,0E0
-1.94765E1,0E0
-1.93984E1,0E0
-1.92998E1,0E0
-1.99892E1,0E0
-2.01406E1,0E0
-2.03359E1,0E0
-2.13652E1,0E0
-2.15888E1,0E0
-2.18837E1,0E0
-2.27548E1,0E0
-2.31865E1,0E0
-2.38476E1,0E0
-2.42119E1,0E0
-2.77773E1,0E0
-3.04169E1,0E0
-3.19404E1,0E0
-3.53007E1,0E0
-3.44628E1,0E0
-3.74648E1,0E0
-4.17402E1,0E0
-3.75136E1,0E0
-4.22753E1,0E0
-4.36543E1,0E0
-4.70859E1,0E0
-4.07675E1,0E0
-3.97968E1,0E0
-3.83046E1,0E0
-3.46425E1,0E0
-3.41972E1,0E0
-3.19794E1,0E0
END
BEGIN
-2.15351E1,0E0
-5.69648E1,0E0
-5.43867E1,0E0
-5.40957E1,0E0
-6.09863E1,0E0
-5.32558E1,0E0
-5.5E1,0E0
-5.14667E1,0E0
-5.37949E1,0E0
-5.15761E1,0E0
-5.21503E1,0E0
-5.04941E1,0E0
-5.09785E1,0E0
-5.29648E1,0E0
-5.51210E1,0E0
-5.45097E1,0E0
-5.44335E1,0E0
-5.18945E1,0E0
-5.17988E1,0E0
-4.81269E1,0E0
-4.88906E1,0E0
-5.35664E1,0E0
-4.42167E1,0E0
-2.68847E1,0E0
-4.19003E1,0E0
-4.79121E1,0E0
-5.00898E1,0E0
-5.09668E1,0E0
-4.94960E1,0E0
-5.17988E1,0E0
-4.95624E1,0E0
-5.09531E1,0E0
-5.41562E1,0E0
-4.71113E1,0E0
-5.50117E1,0E0
-4.98398E1,0E0
-5.79218E1,0E0
-6.12480E1,0E0
-4.95039E1,0E0
-5.12304E1,0E0
-4.45683E1,0E0
-4.77089E1,0E0
-4.88007E1,0E0
-4.85937E1,0E0
-5.17695E1,0E0
-5.35273E1,0E0
-5.30156E1,0E0
-4.91328E1,0E0
-5.19628E1,0E0
-4.89707E1,0E0
-5.04121E1,0E0
-5.05957E1,0E0
-5.04707E1,0E0
-5.25058E1,0E0
-5.08925E1,0E0
-5.27597E1,0E0
-4.81503E1,0E0
-4.75332E1,0E0
-4.75683E1,0E0
-5.04433E1,0E0
-4.69121E1,0E0
-5.02460E1,0E0
-4.80234E1,0E0
-5.01816E1,0E0
-4.42363E1,0E0
-3.09209E1,0E0
-1.57656E1,0E0
-2.56962E1,0E0
-3.25293E1,0E0
-4.20058E1,0E0
-4.51562E1,0E0
-5.29921E1,0E0
-4.51542E1,0E0
-4.66249E1,0E0
-4.72285E1,0E0
-5.02578E1,0E0
-4.62148E1,0E0
-5.10117E1,0E0
-5.05996E1,0E0
-4.66777E1,0E0
-5.23515E1,0E0
-5.12519E1,0E0
-4.59062E1,0E0
-4.33652E1,0E0
-4.08476E1,0E0
-4.30097E1,0E0
-4.42968E1,0E0
-7.74492E1,0E0
-4.80410E1,0E0
-4.51777E1,0E0
-4.17031E1,0E0
-4.11543E1,0E0
-3.96933E1,0E0
-4.49218E1,0E0
-4.46269E1,0E0
-4.13808E1,0E0
-4.17929E1,0E0
-4.26933E1,0E0
-4.30761E1,0E0
-3.85488E1,0E0
-4.01933E1,0E0
-3.43398E1,0E0
-3.13232E1,0E0
-2.98251E1,0E0
-2.51748E1,0E0
-2.39199E1,0E0
-2.81240E1,0E0
-2.88359E1,0E0
-3.08320E1,0E0
-3.01806E1,0E0
-2.94589E1,0E0
-2.76640E1,0E0
-2.69736E1,0E0
-2.67656E1,0E0
-2.54238E1,0E0
-2.41084E1,0E0
-2.27822E1,0E0
-2.08525E1,0E0
-1.79160E1,0E0
-1.68906E1,0E0
-1.62382E1,0E0
-1.38496E1,0E0
-1.32285E1,0E0
-1.42397E1,0E0
-1.32773E1,0E0
-1.21743E1,0E0
-1.2771E1,0E0
-1.25322E1,0E0
-1.09624E1,0E0
-1.22187E1,0E0
-1.40981E1,0E0
-1.32617E1,0E0
-1.39531E1,0E0
-1.55688E1,0E0
-1.63007E1,0E0
-1.65595E1,0E0
-1.73457E1,0E0
-1.77695E1,0E0
-1.93886E1,0E0
-2.31640E1,0E0
-2.70605E1,0E0
-2.86562E1,0E0
-3.28925E1,0E0
-3.67578E1,0E0
-3.73554E1,0E0
-3.01894E1,0E0
-2.63564E1,0E0
-2.44326E1,0E0
-2.29160E1,0E0
-2.19853E1,0E0
-1.94853E1,0E0
-1.92705E1,0E0
-1.79433E1,0E0
-1.68261E1,0E0
-1.39506E1,0E0
-1.23681E1,0E0
-1.29536E1,0E0
-1.29384E1,0E0
-1.22207E1,0E0
-1.08872E1,0E0
-1.01875E1,0E0
-8.72509E0,0E0
-7.67211E0,0E0
-6.61938E0,0E0
-5.57714E0,0E0
-5.24975E0,0E0
-4.08715E0,0E0
-2.32751E0,0E0
-2.21020E0,0E0
-1.37603E0,0E0
-6.46728E-1,0E0
-8.07861E-1,0E0
5.73913E-1,0E0
7.87384E-1,0E0
7.23297E-1,0E0
1.96914E-1,0E0
1.39483E0,0E0
7.86590E-1,0E0
-4.46395E-1,0E0
9.05799E-2,0E0
2.12989E-1,0E0
3.33099E-1,0E0
-7.72430E-1,0E0
-1.62683E0,0E0
-2.55859E0,0E0
-3.11853E0,0E0
-5.07324E0,0E0
-9.62597E0,0E0
-9.27490E0,0E0
-1.18295E1,0E0
-1.76875E1,0E0
-1.57177E1,0E0
-1.83623E1,0E0
-2.33466E1,0E0
-2.28613E1,0E0
-2.18710E1,0E0
-2.18017E1,0E0
-1.96279E1,0E0
-1.64619E1,0E0
-1.30996E1,0E0
-1.26528E1,0E0
END
BEGIN
-1.66406E0,0E0
-1.20356E1,0E0
-1.00380E1,0E0
-1.15908E1,0E0
-1.18012E1,0E0
-9.83837E0,0E0
-1.01220E1,0E0
-5.20898E0,0E0
-1.60974E0,0E0
-2.93774E0,0E0
-4.61987E0,0E0
-3.09350E0,0E0
-8.90258E-1,0E0
-5.85670E-2,0E0
6.35620E-1,0E0
4.50225E-1,0E0
2.01416E-1,0E0
6.96655E-1,0E0
7.89245E-1,0E0
-3.27743E-1,0E0
-1.25665E0,0E0
-1.29859E-1,0E0
4.48120E0,0E0
2.50459E1,0E0
1.04624E1,0E0
6.37451E0,0E0
3.06909E0,0E0
1.90911E0,0E0
2.43273E0,0E0
2.17175E0,0E0
2.33801E0,0E0
3.75781E0,0E0
4.87817E0,0E0
4.61352E0,0E0
4.52441E0,0E0
4.83422E0,0E0
5.39086E0,0E0
5.34106E0,0E0
4.38818E0,0E0
4.50366E0,0E0
5.60205E0,0E0
4.23486E0,0E0
2.88464E0,0E0
2.80944E0,0E0
1.83270E0,0E0
9.25598E-1,0E0
1.28442E0,0E0
2.08337E0,0E0
1.66272E0,0E0
2.09362E0,0E0
1.84680E0,0E0
7.98217E-1,0E0
5.9552E-1,0E0
6.83349E-1,0E0
6.56066E-1,0E0
9.38232E-1,0E0
1.17981E0,0E0
1.17529E0,0E0
1.26739E0,0E0
7.80639E-1,0E0
7.04155E-2,0E0
5.71716E-1,0E0
1.66143E0,0E0
4.65161E0,0E0
8.67968E0,0E0
1.52031E1,0E0
2.53896E1,0E0
1.52543E1,0E0
9.64746E0,0E0
1.33770E0,0E0
-1.7453E0,0E0
-4.41308E0,0E0
-8.71093E0,0E0
-1.10732E1,0E0
-1.24541E1,0E0
-1.17163E1,0E0
-1.09594E1,0E0
-9.63671E0,0E0
-9.98828E0,0E0
-9.36621E0,0E0
-8.35888E0,0E0
-6.58252E0,0E0
-4.05346E0,0E0
-1.14953E0,0E0
-1.49743E0,0E0
1.68754E-1,0E0
2.55615E0,0E0
2.45690E0,0E0
2.08007E0,0E0
3.24890E0,0E0
4.26342E0,0E0
3.65856E0,0E0
4.05542E0,0E0
3.01306E0,0E0
1.59075E0,0E0
1.60546E0,0E0
1.96002E0,0E0
1.19592E0,0E0
6.8573E-1,0E0
9.60876E-1,0E0
1.32678E0,0E0
1.60485E0,0E0
1.83087E0,0E0
2.30041E0,0E0
3.47045E0,0E0
2.75427E0,0E0
1.28521E0,0E0
1.32586E0,0E0
1.70568E0,0E0
1.97454E0,0E0
3.30065E0,0E0
4.99316E0,0E0
4.44287E0,0E0
3.15771E0,0E0
2.87829E0,0E0
2.28833E0,0E0
1.95629E0,0E0
1.94866E0,0E0
1.94043E0,0E0
1.92083E0,0E0
2.28710E0,0E0
2.74377E0,0E0
1.34649E0,0E0
5.62667E-2,0E0
-5.23803E-1,0E0
-7.52899E-1,0E0
-1.25293E0,0E0
-1.34179E0,0E0
-1.30627E0,0E0
-1.79705E0,0E0
-2.89209E0,0E0
-3.42382E0,0E0
-3.31884E0,0E0
-3.30102E0,0E0
-3.51318E0,0E0
-3.53332E0,0E0
-2.80017E0,0E0
-1.63488E0,0E0
-1.13818E0,0E0
-1.17016E0,0E0
-3.42392E-1,0E0
-4.35466E-2,0E0
-8.33007E-1,0E0
-8.18908E-1,0E0
-7.81616E-1,0E0
-1.67565E0,0E0
-1.13507E0,0E0
2.77114E-1,0E0
-2.67471E-1,0E0
-1.90887E0,0E0
-1.09613E0,0E0
-9.06707E-1,0E0
-2.27221E0,0E0
-2.16394E0,0E0
-6.69555E-1,0E0
-2.90130E-1,0E0
-4.13681E-1,0E0
5.12142E-2,0E0
-3.56872E-1,0E0
-6.00280E-1,0E0
-4.68063E-2,0E0
2.11425E-1,0E0
3.0867E-1,0E0
1.27386E0,0E0
1.50311E0,0E0
1.42877E0,0E0
2.08154E0,0E0
2.23413E0,0E0
1.89263E0,0E0
1.85363E0,0E0
1.62457E0,0E0
9.72351E-1,0E0
1.46258E0,0E0
1.75183E0,0E0
1.14373E0,0E0
2.90985E-1,0E0
7.81829E-1,0E0
9.92248E-1,0E0
-3.83548E-2,0E0
-8.50463E-1,0E0
-6.62384E-1,0E0
4.80003E-2,0E0
-8.76098E-1,0E0
-1.77166E0,0E0
-1.38519E0,0E0
-5.79681E-1,0E0
-1.53997E0,0E0
-2.43469E0,0E0
-2.81347E0,0E0
-4.50244E0,0E0
-4.43383E0,0E0
-4.13671E0,0E0
-5.33325E0,0E0
-5.32226E0,0E0
-3.53283E0,0E0
-4.08837E0,0E0
-6.17504E0,0E0
-5.75708E0,0E0
-4.39892E0,0E0
-3.23815E0,0E0
-2.97729E0,0E0
END

