CITIFILE A.01.00
#NA VERSION HP8753ES.07.64: Feb 23, 2000
NAME RAW_DATA
VAR FREQ MAG 201
DATA S[1,1] RI
DATA S[2,1] RI
DATA S[1,2] RI
DATA S[2,2] RI
BEGIN
-2.39913E-1,-2.12402E-2
-2.39364E-1,-2.10418E-2
-2.39410E-1,-2.13623E-2
-2.39364E-1,-2.12860E-2
-2.39257E-1,-2.11029E-2
-2.39227E-1,-2.14386E-2
-2.39410E-1,-2.09503E-2
-2.40264E-1,-2.12402E-2
-2.39532E-1,-2.11029E-2
-2.39425E-1,-2.14996E-2
-2.39120E-1,-2.12249E-2
-2.38662E-1,-2.12554E-2
-2.39135E-1,-2.11792E-2
-2.38357E-1,-2.06756E-2
-2.38937E-1,-2.12707E-2
-2.39532E-1,-2.12097E-2
-2.39456E-1,-2.14386E-2
-2.38922E-1,-2.14691E-2
-2.39364E-1,-2.14080E-2
-2.38876E-1,-2.15911E-2
-2.39761E-1,-2.13928E-2
-2.39379E-1,-2.14691E-2
-2.39044E-1,-2.17132E-2
-2.39257E-1,-2.16369E-2
-2.39456E-1,-2.11029E-2
-2.39563E-1,-2.09960E-2
-2.39181E-1,-2.08282E-2
-2.38754E-1,-2.07519E-2
-2.38922E-1,-2.15454E-2
-2.38998E-1,-2.14996E-2
-2.39013E-1,-2.13470E-2
-2.38601E-1,-2.07061E-2
-2.39532E-1,-2.07519E-2
-2.39715E-1,-2.04925E-2
-2.39303E-1,-2.07672E-2
-2.39303E-1,-2.11792E-2
-2.39288E-1,-2.09808E-2
-2.38357E-1,-2.09045E-2
-2.39608E-1,-2.10571E-2
-2.39196E-1,-2.13317E-2
-2.38739E-1,-2.1698E-2
-2.39730E-1,-2.04315E-2
-2.39273E-1,-1.98059E-2
-2.39791E-1,-2.05993E-2
-2.39639E-1,-2.17132E-2
-2.39685E-1,-2.07214E-2
-2.39410E-1,-2.12554E-2
-2.39593E-1,-2.13623E-2
-2.39425E-1,-2.13012E-2
-2.38922E-1,-2.11334E-2
-2.39044E-1,-2.09808E-2
-2.38418E-1,-2.07824E-2
-2.39074E-1,-2.07977E-2
-2.39761E-1,-2.00653E-2
-2.38754E-1,-2.02941E-2
-2.39135E-1,-2.06146E-2
-2.39196E-1,-2.08129E-2
-2.40142E-1,-2.05230E-2
-2.39105E-1,-2.04162E-2
-2.38815E-1,-2.05230E-2
-2.388E-1,-1.99585E-2
-2.39593E-1,-2.06298E-2
-2.39822E-1,-2.07824E-2
-2.39105E-1,-2.07519E-2
-2.39669E-1,-2.03704E-2
-2.39486E-1,-2.04620E-2
-2.39608E-1,-2.06756E-2
-2.39654E-1,-2.00500E-2
-2.39425E-1,-1.98364E-2
-2.39563E-1,-2.05841E-2
-2.39929E-1,-2.02331E-2
-2.39791E-1,-2.05688E-2
-2.39837E-1,-2.01721E-2
-2.39761E-1,-2.04467E-2
-2.40142E-1,-2.04162E-2
-2.39669E-1,-1.99585E-2
-2.39334E-1,-2.02179E-2
-2.39990E-1,-1.98211E-2
-2.40325E-1,-1.98364E-2
-2.39608E-1,-1.97143E-2
-2.39837E-1,-1.99127E-2
-2.39761E-1,-1.95007E-2
-2.39975E-1,-1.96991E-2
-2.39913E-1,-1.98059E-2
-2.39639E-1,-1.93939E-2
-2.40280E-1,-1.94549E-2
-2.40356E-1,-1.97448E-2
-2.40036E-1,-1.92565E-2
-2.40402E-1,-1.95159E-2
-2.40280E-1,-1.96380E-2
-2.40081E-1,-1.93939E-2
-2.40341E-1,-1.89819E-2
-2.40295E-1,-1.89666E-2
-2.40295E-1,-1.92260E-2
-2.40631E-1,-1.86767E-2
-2.40249E-1,-1.89971E-2
-2.40707E-1,-1.87835E-2
-2.40707E-1,-1.86157E-2
-2.40890E-1,-1.87683E-2
-2.40676E-1,-1.86767E-2
-2.40982E-1,-1.86157E-2
-2.40921E-1,-1.84936E-2
-2.41317E-1,-1.82037E-2
-2.40585E-1,-1.78985E-2
-2.41195E-1,-1.78222E-2
-2.41546E-1,-1.78833E-2
-2.41287E-1,-1.79595E-2
-2.41180E-1,-1.78222E-2
-2.41455E-1,-1.75628E-2
-2.41699E-1,-1.75170E-2
-2.41745E-1,-1.80053E-2
-2.41684E-1,-1.72424E-2
-2.42172E-1,-1.71203E-2
-2.42111E-1,-1.69830E-2
-2.42172E-1,-1.68457E-2
-2.42248E-1,-1.66778E-2
-2.42507E-1,-1.65252E-2
-2.42584E-1,-1.64794E-2
-2.42919E-1,-1.64489E-2
-2.42919E-1,-1.59912E-2
-2.43484E-1,-1.58538E-2
-2.43392E-1,-1.56097E-2
-2.43591E-1,-1.55639E-2
-2.43682E-1,-1.55029E-2
-2.43591E-1,-1.47399E-2
-2.44125E-1,-1.43890E-2
-2.44339E-1,-1.45568E-2
-2.44964E-1,-1.43127E-2
-2.45193E-1,-1.40228E-2
-2.45407E-1,-1.32904E-2
-2.45513E-1,-1.32141E-2
-2.45697E-1,-1.24969E-2
-2.46139E-1,-1.22528E-2
-2.46841E-1,-1.19018E-2
-2.47024E-1,-1.12457E-2
-2.47863E-1,-1.07116E-2
-2.4823E-1,-1.02844E-2
-2.48931E-1,-9.59777E-3
-2.49603E-1,-8.57543E-3
-2.50259E-1,-7.76672E-3
-2.50869E-1,-6.83593E-3
-2.51892E-1,-5.76782E-3
-2.52853E-1,-4.79126E-3
-2.53707E-1,-3.46374E-3
-2.54684E-1,-2.15148E-3
-2.55645E-1,-5.18798E-4
-2.56744E-1,0.00701E-1
-2.57812E-1,0.02487E-1
-2.59063E-1,0.04394E-1
-2.60360E-1,0.05874E-1
-2.61550E-1,0.07995E-1
-2.63107E-1,0.10116E-1
-2.64099E-1,0.11764E-1
-2.65579E-1,0.13961E-1
-2.66540E-1,0.16098E-1
-2.68142E-1,0.18219E-1
-2.69409E-1,0.20523E-1
-2.70996E-1,0.22689E-1
-2.72338E-1,0.25070E-1
-2.73773E-1,0.27404E-1
-2.74917E-1,0.29556E-1
-2.76382E-1,0.31921E-1
-2.77771E-1,0.34088E-1
-2.79037E-1,0.36270E-1
-2.80227E-1,0.38742E-1
-2.81768E-1,0.41198E-1
-2.82913E-1,0.43563E-1
-2.84332E-1,0.46066E-1
-2.85705E-1,0.48629E-1
-2.86956E-1,0.51147E-1
-2.88024E-1,0.53268E-1
-2.89352E-1,0.55923E-1
-2.90603E-1,0.58471E-1
-2.91748E-1,0.60928E-1
-2.92816E-1,0.63522E-1
-2.94021E-1,0.66299E-1
-2.94967E-1,0.68954E-1
-2.96066E-1,0.71579E-1
-2.96920E-1,0.74173E-1
-2.97836E-1,0.77133E-1
-2.98629E-1,0.80123E-1
-2.99346E-1,0.83007E-1
-2.99926E-1,0.86120E-1
-3.00445E-1,0.89416E-1
-3.00827E-1,0.92758E-1
-3.01101E-1,0.96206E-1
-3.01223E-1,0.99609E-1
-3.01330E-1,1.03073E-1
-3.01406E-1,1.06857E-1
-3.01330E-1,1.10519E-1
-3.01162E-1,1.14242E-1
-3.01116E-1,1.18103E-1
-3.00827E-1,1.21597E-1
-3.00460E-1,1.25320E-1
-3.00231E-1,1.28891E-1
-2.99758E-1,1.32354E-1
-2.99423E-1,1.36047E-1
-2.99026E-1,1.39999E-1
-2.98629E-1,1.43447E-1
-2.98324E-1,1.47247E-1
-2.97714E-1,1.51245E-1
-1.41723E0,3.98877E0
-1.41333E0,3.98535E0
-1.41528E0,3.98657E0
-1.41626E0,3.98901E0
-1.41528E0,3.99853E0
-1.41381E0,3.98364E0
-1.40942E0,3.98632E0
-1.41186E0,3.99633E0
-1.41162E0,3.98828E0
-1.42016E0,3.98950E0
-1.41186E0,3.98144E0
-1.41186E0,3.97827E0
-1.41430E0,3.97949E0
-1.39941E0,3.97583E0
-1.41381E0,3.98291E0
-1.40844E0,3.98095E0
-1.41748E0,3.98535E0
-1.42114E0,3.97705E0
-1.41674E0,3.97778E0
-1.41967E0,3.97460E0
-1.41967E0,3.98730E0
-1.42334E0,3.98120E0
-1.42211E0,3.97436E0
-1.42089E0,3.97534E0
-1.42334E0,3.98022E0
-1.41528E0,3.98217E0
-1.40918E0,3.97729E0
-1.41088E0,3.96289E0
-1.41992E0,3.96997E0
-1.42016E0,3.96337E0
-1.41601E0,3.96679E0
-1.41088E0,3.96484E0
-1.41821E0,3.96362E0
-1.4104E0,3.97241E0
-1.41381E0,3.96777E0
-1.41748E0,3.97168E0
-1.41503E0,3.96264E0
-1.41479E0,3.95459E0
-1.41943E0,3.96679E0
-1.41284E0,3.96215E0
-1.42138E0,3.95776E0
-1.42285E0,3.96337E0
-1.41333E0,3.95874E0
-1.41796E0,3.96386E0
-1.42016E0,3.96044E0
-1.41845E0,3.95605E0
-1.42065E0,3.95605E0
-1.41796E0,3.95703E0
-1.42260E0,3.94921E0
-1.42016E0,3.94970E0
-1.42504E0,3.95166E0
-1.41870E0,3.94287E0
-1.41845E0,3.94775E0
-1.41479E0,3.95043E0
-1.41821E0,3.93945E0
-1.41723E0,3.94262E0
-1.42016E0,3.94238E0
-1.41723E0,3.94458E0
-1.41650E0,3.93945E0
-1.41699E0,3.93627E0
-1.41552E0,3.93139E0
-1.42138E0,3.93286E0
-1.41894E0,3.92724E0
-1.41284E0,3.92675E0
-1.41943E0,3.92675E0
-1.41479E0,3.92236E0
-1.41479E0,3.92041E0
-1.41577E0,3.92187E0
-1.41137E0,3.91723E0
-1.41479E0,3.9104E0
-1.41137E0,3.91626E0
-1.41796E0,3.91088E0
-1.41088E0,3.90942E0
-1.41430E0,3.90502E0
-1.41333E0,3.90185E0
-1.41015E0,3.89941E0
-1.41186E0,3.89599E0
-1.41088E0,3.89160E0
-1.41259E0,3.89257E0
-1.40991E0,3.88623E0
-1.40893E0,3.88476E0
-1.40722E0,3.87939E0
-1.40576E0,3.87915E0
-1.40380E0,3.87231E0
-1.40283E0,3.86718E0
-1.40258E0,3.87182E0
-1.40014E0,3.86474E0
-1.39917E0,3.86010E0
-1.39819E0,3.85644E0
-1.39990E0,3.85205E0
-1.39477E0,3.8479E0
-1.39428E0,3.84448E0
-1.39086E0,3.84106E0
-1.39453E0,3.83447E0
-1.38745E0,3.83398E0
-1.38647E0,3.82690E0
-1.38305E0,3.82153E0
-1.38208E0,3.81982E0
-1.37866E0,3.81469E0
-1.37841E0,3.80712E0
-1.37377E0,3.80200E0
-1.37377E0,3.79785E0
-1.37036E0,3.79345E0
-1.36572E0,3.78418E0
-1.36084E0,3.78051E0
-1.35961E0,3.7771E0
-1.35668E0,3.77050E0
-1.35351E0,3.76196E0
-1.34912E0,3.75585E0
-1.34472E0,3.75097E0
-1.34204E0,3.74340E0
-1.33276E0,3.73754E0
-1.33154E0,3.73120E0
-1.32666E0,3.72387E0
-1.32031E0,3.71484E0
-1.31640E0,3.70874E0
-1.30981E0,3.70239E0
-1.30468E0,3.69335E0
-1.29760E0,3.6875E0
-1.28906E0,3.67944E0
-1.28491E0,3.67211E0
-1.27368E0,3.66210E0
-1.26879E0,3.65332E0
-1.26025E0,3.64209E0
-1.24902E0,3.63256E0
-1.23877E0,3.62353E0
-1.23046E0,3.61279E0
-1.22094E0,3.60498E0
-1.21118E0,3.59497E0
-1.19873E0,3.58300E0
-1.18627E0,3.56909E0
-1.17065E0,3.55371E0
-1.15820E0,3.54272E0
-1.14331E0,3.52905E0
-1.12597E0,3.51342E0
-1.11254E0,3.49975E0
-1.09594E0,3.48217E0
-1.07714E0,3.46191E0
-1.05590E0,3.44116E0
-1.03662E0,3.42041E0
-1.01757E0,3.39941E0
-9.94873E-1,3.37695E0
-9.77050E-1,3.35009E0
-9.52880E-1,3.32275E0
-9.32617E-1,3.29394E0
-9.09423E-1,3.26611E0
-8.88183E-1,3.23974E0
-8.67675E-1,3.21044E0
-8.46923E-1,3.17871E0
-8.26904E-1,3.14502E0
-8.05175E-1,3.11084E0
-7.84912E-1,3.08007E0
-7.64648E-1,3.04541E0
-7.43652E-1,3.00878E0
-7.23632E-1,2.97558E0
-7.05322E-1,2.94043E0
-6.84814E-1,2.9021E0
-6.67236E-1,2.87085E0
-6.48681E-1,2.83789E0
-6.29638E-1,2.80346E0
-6.11572E-1,2.76904E0
-5.9375E-1,2.73339E0
-5.77148E-1,2.70361E0
-5.60791E-1,2.66943E0
-5.42724E-1,2.63574E0
-5.27343E-1,2.60400E0
-5.09399E-1,2.56994E0
-4.92187E-1,2.53698E0
-4.76440E-1,2.50427E0
-4.60937E-1,2.47338E0
-4.46411E-1,2.44091E0
-4.31152E-1,2.41052E0
-4.15283E-1,2.37829E0
-4.01001E-1,2.34887E0
-3.85620E-1,2.31811E0
-3.71093E-1,2.28845E0
-3.56323E-1,2.25781E0
-3.42651E-1,2.22827E0
-3.29834E-1,2.20141E0
-3.15551E-1,2.17163E0
-3.02002E-1,2.14318E0
-2.89428E-1,2.11523E0
-2.76123E-1,2.08642E0
-2.62939E-1,2.05786E0
-2.50244E-1,2.03027E0
-2.37426E-1,2.00158E0
-2.24853E-1,1.97473E0
-2.13012E-1,1.94726E0
-2.00805E-1,1.92053E0
-1.88964E-1,1.89392E0
-1.76635E-1,1.86706E0
-1.64672E-1,1.83886E0
-1.53564E-1,1.81543E0
-1.41845E-1,1.79077E0
-1.30737E-1,1.76672E0
-1.19873E-1,1.74316E0
-1.07177E-1,1.71838E0
-9.43603E-2,1.69348E0
-8.32519E-2,1.67028E0
-7.00683E-2,1.64746E0
-5.63964E-2,1.62353E0
-1.89587E-4,2.51799E-4
-6.48871E-5,1.38334E-4
1.87099E-4,3.55094E-4
-1.79737E-4,-1.32173E-5
-2.78949E-5,3.50982E-4
-3.40044E-5,1.22070E-4
-9.19103E-5,1.98930E-4
0.39830E-4,2.84716E-4
1.94311E-5,8.27461E-5
-2.18361E-4,2.42859E-4
-8.57859E-5,2.28256E-4
-7.10114E-5,1.16109E-4
9.47639E-5,1.30087E-5
1.53690E-4,1.09925E-4
-1.76876E-5,3.02791E-4
-1.63614E-4,1.02326E-4
-1.98453E-4,2.11536E-4
-1.60336E-5,1.88887E-4
0.24929E-4,2.20909E-4
-8.71196E-5,7.65845E-5
-1.64687E-4,2.33575E-4
-2.08333E-4,1.68174E-4
1.65715E-4,2.02938E-4
-2.54780E-4,1.68561E-4
-1.66624E-4,0.32708E-4
-4.57316E-5,2.09152E-4
-9.38028E-5,1.45576E-4
-2.10806E-4,2.11313E-4
-5.28246E-5,1.79231E-4
-1.21109E-5,-3.8445E-5
-8.46236E-5,2.69234E-4
5.04218E-5,2.97054E-5
2.70605E-5,1.05664E-4
-2.06127E-4,2.61813E-4
-3.19518E-5,5.842E-5
-1.06968E-4,1.51157E-4
-1.52051E-4,2.57089E-4
-2.19196E-5,2.31936E-4
-8.49664E-5,1.33819E-4
-1.45308E-4,0.77262E-4
1.23113E-4,1.99362E-4
0.65922E-4,3.18527E-4
2.38996E-5,1.08778E-5
-1.35630E-4,1.44057E-4
7.52583E-5,2.91504E-5
-1.47640E-4,0.99301E-4
-3.55988E-5,1.36911E-4
-1.58309E-4,1.31696E-4
-8.17477E-5,1.32046E-4
-1.14329E-4,1.07422E-4
-1.53884E-4,1.17659E-4
-1.67802E-4,2.42337E-4
-1.28820E-4,1.71557E-4
-6.84931E-5,1.07966E-4
-9.22381E-5,1.70052E-4
-6.97523E-5,1.67593E-4
-6.80387E-5,1.04367E-4
-4.06950E-5,1.46940E-4
-3.44067E-5,1.43356E-4
-1.53854E-4,1.04665E-4
-4.43011E-5,1.13442E-4
-1.68740E-4,0.65863E-4
-6.46412E-5,1.59561E-4
-7.69123E-5,4.00617E-5
-6.89402E-5,1.48065E-4
0.60737E-4,2.12624E-4
-1.65849E-5,1.75610E-4
-3.80724E-5,1.81749E-4
-1.34632E-5,1.15871E-4
-6.53639E-5,8.20979E-5
-7.50124E-5,1.46307E-4
-8.69780E-5,1.61990E-4
-4.73111E-6,1.43587E-4
-3.71187E-5,1.41367E-4
-6.70775E-5,1.02080E-4
-4.31612E-5,1.03376E-4
1.95577E-5,8.61287E-5
-4.46587E-5,1.60396E-4
-7.46995E-5,9.54195E-5
-6.07147E-5,1.00933E-4
-6.61909E-5,1.75327E-4
-6.97225E-5,1.08264E-4
-1.57654E-5,1.74477E-4
-5.09768E-5,1.62050E-4
-9.34749E-5,1.60113E-4
-6.00963E-5,1.25624E-4
-9.14633E-5,1.40734E-4
-9.07853E-5,1.22256E-4
-5.06937E-5,2.19196E-4
-2.42292E-5,1.56492E-4
-8.95261E-5,1.74105E-4
-8.90344E-5,8.75890E-5
-1.19298E-4,1.53943E-4
-8.96230E-5,1.45353E-4
-3.01003E-5,1.58801E-4
-4.69833E-5,1.31748E-4
-7.54147E-5,1.78754E-4
-7.40736E-5,2.07245E-4
-2.33277E-5,1.20207E-4
-9.84370E-5,1.68010E-4
-8.68514E-5,1.34244E-4
-4.07397E-5,1.70901E-4
-3.43248E-5,1.37053E-4
-2.96533E-5,1.56387E-4
-7.00354E-5,1.27367E-4
-9.27299E-5,1.58965E-4
-8.74400E-5,1.46530E-4
-4.57912E-5,1.34363E-4
-4.61787E-5,1.04546E-4
-4.26024E-5,1.28500E-4
-2.83494E-5,1.49674E-4
-4.18573E-5,1.62690E-4
-8.65906E-5,1.53124E-4
-4.03076E-5,1.42745E-4
-6.11543E-5,1.49704E-4
-6.55055E-5,1.08525E-4
-5.01051E-5,1.48400E-4
-6.26891E-5,1.51306E-4
-9.97856E-5,1.38633E-4
-7.67931E-5,1.25803E-4
-3.11434E-5,1.65388E-4
-9.12249E-5,1.52975E-4
-3.65674E-5,1.57237E-4
-2.26497E-5,1.61260E-4
-5.99995E-5,1.49004E-4
-5.29289E-5,1.33447E-4
-1.14582E-4,1.06975E-4
-6.63548E-5,1.54420E-4
-7.77319E-5,1.50479E-4
-8.94218E-5,1.23061E-4
-7.97957E-5,1.88157E-4
-8.24034E-5,1.54882E-4
-6.28382E-5,1.45666E-4
-5.95897E-5,1.55076E-4
-1.03414E-4,1.50919E-4
-4.38392E-5,1.48594E-4
-5.64083E-5,1.38156E-4
-6.36503E-5,1.40257E-4
-7.77095E-5,1.63629E-4
-4.73856E-5,1.57430E-4
-9.11578E-5,1.49108E-4
-4.36604E-5,1.08473E-4
-5.08576E-5,1.60843E-4
-5.93140E-5,1.44615E-4
-5.56260E-5,1.73628E-4
-7.19204E-5,1.47536E-4
-3.29390E-5,1.50568E-4
-6.44028E-5,1.70230E-4
-4.70802E-5,1.24432E-4
-4.19467E-5,1.49503E-4
-6.44773E-5,1.53258E-4
-4.41968E-5,1.40510E-4
-2.60025E-5,1.48885E-4
-5.21391E-5,1.74433E-4
-6.23762E-5,1.62884E-4
-5.71459E-5,1.33968E-4
-5.06043E-5,1.16668E-4
-5.22881E-5,1.77934E-4
-3.50773E-5,1.33328E-4
-5.72279E-5,1.50062E-4
-6.75991E-5,1.35116E-4
-4.88907E-5,1.60947E-4
-8.06376E-5,1.38290E-4
-3.18586E-5,1.59531E-4
-6.75618E-5,1.49659E-4
-7.29784E-5,1.46038E-4
-7.17639E-5,1.6357E-4
-5.33163E-5,1.66639E-4
-5.96940E-5,1.53720E-4
-4.54857E-5,1.4586E-4
-6.79269E-5,1.40808E-4
-4.13656E-5,1.76429E-4
-7.16969E-5,1.51880E-4
-6.58184E-5,1.65686E-4
-4.69386E-5,1.55210E-4
-7.17788E-5,1.56685E-4
-7.03930E-5,1.56074E-4
-6.41122E-5,1.29185E-4
-5.72055E-5,1.44511E-4
-7.06389E-5,1.52066E-4
-6.55427E-5,1.47551E-4
-6.13033E-5,1.5755E-4
-5.19901E-5,1.43148E-4
-6.48722E-5,1.52081E-4
-6.89029E-5,1.37724E-4
-5.14686E-5,1.41352E-4
-7.26729E-5,1.55046E-4
-6.59599E-5,1.49272E-4
-5.97685E-5,1.37612E-4
-6.41420E-5,1.46150E-4
-5.71012E-5,1.54614E-4
-7.18385E-5,1.53988E-4
-6.58482E-5,1.51924E-4
-6.75767E-5,1.54525E-4
-6.14225E-5,1.28179E-4
-5.42774E-5,1.45301E-4
-6.05583E-5,1.44802E-4
-5.55366E-5,1.49138E-4
-7.75307E-5,1.62050E-4
-6.22272E-5,1.53049E-4
-6.12586E-5,1.59472E-4
-3.25393E-3,-2.77195E-2
-3.29017E-3,-2.76641E-2
-3.22341E-3,-2.78110E-2
-3.07655E-3,-2.72617E-2
-3.25012E-3,-2.74124E-2
-3.58963E-3,-2.75688E-2
-3.51905E-3,-2.74314E-2
-3.10325E-3,-2.72254E-2
-3.40843E-3,-2.71568E-2
-3.02314E-3,-2.71663E-2
-3.26728E-3,-2.72235E-2
-3.23486E-3,-2.73132E-2
-3.54766E-3,-2.74047E-2
-3.52096E-3,-2.73323E-2
-3.34739E-3,-2.73532E-2
-3.34930E-3,-2.74944E-2
-3.29208E-3,-2.73971E-2
-3.29971E-3,-2.72388E-2
-3.47900E-3,-2.74124E-2
-3.15666E-3,-2.71568E-2
-3.43132E-3,-2.76622E-2
-3.26156E-3,-2.74868E-2
-3.24249E-3,-2.74868E-2
-3.41606E-3,-2.74562E-2
-3.38554E-3,-2.72007E-2
-3.39317E-3,-2.70786E-2
-3.20434E-3,-2.73513E-2
-3.24249E-3,-2.74238E-2
-3.26347E-3,-2.73571E-2
-3.38554E-3,-2.75211E-2
-3.41033E-3,-2.74238E-2
-3.44276E-3,-2.74810E-2
-3.17382E-3,-2.74982E-2
-3.39317E-3,-2.75001E-2
-3.19290E-3,-2.74009E-2
-3.17955E-3,-2.72731E-2
-3.17192E-3,-2.71301E-2
-3.33595E-3,-2.74028E-2
-3.36265E-3,-2.74353E-2
-3.19862E-3,-2.72979E-2
-3.18336E-3,-2.75173E-2
-3.23486E-3,-2.72750E-2
-3.23677E-3,-2.72731E-2
-3.29780E-3,-2.73895E-2
-3.30352E-3,-2.74848E-2
-3.36265E-3,-2.75363E-2
-3.26919E-3,-2.73685E-2
-3.21006E-3,-2.73933E-2
-3.22532E-3,-2.73761E-2
-3.20434E-3,-2.74524E-2
-3.28826E-3,-2.74124E-2
-3.29780E-3,-2.74734E-2
-3.24058E-3,-2.73094E-2
-3.19290E-3,-2.74200E-2
-3.28064E-3,-2.73780E-2
-3.16619E-3,-2.73475E-2
-3.37791E-3,-2.73551E-2
-3.20053E-3,-2.74276E-2
-3.32832E-3,-2.74219E-2
-3.25393E-3,-2.74810E-2
-3.22914E-3,-2.73590E-2
-3.17955E-3,-2.73246E-2
-3.20625E-3,-2.73857E-2
-3.26156E-3,-2.73475E-2
-3.40461E-3,-2.74410E-2
-3.32069E-3,-2.73551E-2
-3.29208E-3,-2.73113E-2
-3.32832E-3,-2.72998E-2
-3.32450E-3,-2.74543E-2
-3.24058E-3,-2.75859E-2
-3.26919E-3,-2.73628E-2
-3.28064E-3,-2.73838E-2
-3.22723E-3,-2.74429E-2
-3.17382E-3,-2.74162E-2
-3.21769E-3,-2.74639E-2
-3.25775E-3,-2.74486E-2
-3.25202E-3,-2.74810E-2
-3.26919E-3,-2.74047E-2
-3.31878E-3,-2.74086E-2
-3.22914E-3,-2.74429E-2
-3.16810E-3,-2.74105E-2
-3.19099E-3,-2.73819E-2
-3.18336E-3,-2.73628E-2
-3.25584E-3,-2.74009E-2
-3.22341E-3,-2.73361E-2
-3.31306E-3,-2.73475E-2
-3.27110E-3,-2.74372E-2
-3.29208E-3,-2.74238E-2
-3.23867E-3,-2.74334E-2
-3.27491E-3,-2.73838E-2
-3.16619E-3,-2.74391E-2
-3.20434E-3,-2.74677E-2
-3.17382E-3,-2.73895E-2
-3.18908E-3,-2.74524E-2
-3.22341E-3,-2.73895E-2
-3.29208E-3,-2.74086E-2
-3.25393E-3,-2.74829E-2
-3.23104E-3,-2.74524E-2
-3.21388E-3,-2.73819E-2
-3.27682E-3,-2.73857E-2
-3.26156E-3,-2.74047E-2
-3.27301E-3,-2.74410E-2
-3.23486E-3,-2.74028E-2
-3.24630E-3,-2.74658E-2
-3.25584E-3,-2.74295E-2
-3.26347E-3,-2.74562E-2
-3.25965E-3,-2.74753E-2
-3.26919E-3,-2.74925E-2
-3.25775E-3,-2.74257E-2
-3.21579E-3,-2.74219E-2
-3.21960E-3,-2.74429E-2
-3.24630E-3,-2.74448E-2
-3.21769E-3,-2.74410E-2
-3.26156E-3,-2.74009E-2
-3.25584E-3,-2.74601E-2
-3.15856E-3,-2.74448E-2
-3.27301E-3,-2.74906E-2
-3.17001E-3,-2.75058E-2
-3.19671E-3,-2.74925E-2
-3.23867E-3,-2.74639E-2
-3.17001E-3,-2.74467E-2
-3.20434E-3,-2.74486E-2
-3.18527E-3,-2.74486E-2
-3.23867E-3,-2.74162E-2
-3.17573E-3,-2.74601E-2
-3.18527E-3,-2.73990E-2
-3.17001E-3,-2.74448E-2
-3.23295E-3,-2.74334E-2
-3.12233E-3,-2.74543E-2
-3.21579E-3,-2.74486E-2
-3.20434E-3,-2.74639E-2
-3.19862E-3,-2.74581E-2
-3.22723E-3,-2.74238E-2
-3.20434E-3,-2.74639E-2
-3.18718E-3,-2.74200E-2
-3.20625E-3,-2.74696E-2
-3.16429E-3,-2.74639E-2
-3.16429E-3,-2.74486E-2
-3.19290E-3,-2.74543E-2
-3.18908E-3,-2.74772E-2
-3.21197E-3,-2.74601E-2
-3.16047E-3,-2.74372E-2
-3.22723E-3,-2.74467E-2
-3.22723E-3,-2.74677E-2
-3.20053E-3,-2.74601E-2
-3.17955E-3,-2.74467E-2
-3.22151E-3,-2.74868E-2
-3.18908E-3,-2.74467E-2
-3.21960E-3,-2.74829E-2
-3.21197E-3,-2.74848E-2
-3.18527E-3,-2.74753E-2
-3.20053E-3,-2.74868E-2
-3.20816E-3,-2.74848E-2
-3.19862E-3,-2.74677E-2
-3.17573E-3,-2.74791E-2
-3.19862E-3,-2.74601E-2
-3.18527E-3,-2.74868E-2
-3.17573E-3,-2.74868E-2
-3.22532E-3,-2.74753E-2
-3.17764E-3,-2.74982E-2
-3.19099E-3,-2.75039E-2
-3.20434E-3,-2.75020E-2
-3.18718E-3,-2.75020E-2
-3.20053E-3,-2.74677E-2
-3.18718E-3,-2.75116E-2
-3.19099E-3,-2.74868E-2
-3.19290E-3,-2.74753E-2
-3.17192E-3,-2.74906E-2
-3.17382E-3,-2.75096E-2
-3.18527E-3,-2.74868E-2
-3.18145E-3,-2.74925E-2
-3.16810E-3,-2.74887E-2
-3.16619E-3,-2.74906E-2
-3.20434E-3,-2.75154E-2
-3.18718E-3,-2.74677E-2
-3.17573E-3,-2.75058E-2
-3.18336E-3,-2.74829E-2
-3.18145E-3,-2.74925E-2
-3.18527E-3,-2.74868E-2
-3.20053E-3,-2.75211E-2
-3.14903E-3,-2.74906E-2
-3.20053E-3,-2.74944E-2
-3.16619E-3,-2.75058E-2
-3.14140E-3,-2.74334E-2
-3.14903E-3,-2.75631E-2
-3.20625E-3,-2.74257E-2
-3.17382E-3,-2.75325E-2
-3.14903E-3,-2.74944E-2
-3.21769E-3,-2.74715E-2
-3.17001E-3,-2.75440E-2
-3.16619E-3,-2.74543E-2
-3.08418E-3,-2.74868E-2
-3.21197E-3,-2.75383E-2
-3.12423E-3,-2.75383E-2
-3.12233E-3,-2.75631E-2
-3.18336E-3,-2.74791E-2
-3.15856E-3,-2.75230E-2
-3.15666E-3,-2.75611E-2
-3.20625E-3,-2.75268E-2
-3.05748E-3,-2.75383E-2
-3.23295E-3,-2.74524E-2