! Network Analyzer HP8753ES.07.64: Feb 23, 2000 Serial No. US39172985
! Hewlett-Packard
!  2 Dec 2016  10:10:55
! Frequency       S11                S21                S12                S22
# HZ  S  DB R  50 
30000  -.7972    34.656    1.6276   -19.973   -21.535   -101.92   -1.664   -135.55   
30029850  -21.04    132.78    31.241    149.82   -56.964    48.704   -12.035   -121.98   
60029700  -16.517    80.836    31.786    118.05   -54.386    20.178   -10.038   -93.962   
90029550  -14.671    46.427    32.32    81.188   -54.094   -16.437   -11.591   -86.142   
120029400  -14.246    29.068    32.402    43.463   -60.985   -29.299   -11.801   -107.73   
150029250  -13.584    17.45    32.239    8.0351   -53.256   -16.492   -9.8382   -91.588   
180029100  -12.511    5.1004    32.283   -27.028   -54.998   -29.328   -10.122   -66.676   
210028950  -11.581   -8.9415    32.434   -64.344   -51.466   -27.352   -5.2089   -61.227   
240028800  -11.188   -25.085    32.269   -101.81   -53.795   -48.137   -1.6097   -48.201   
270028650  -11.198   -41.641    32.042   -138.58   -51.576   -47.361   -2.9377   -31.131   
300028500  -11.793   -60.309    32.046   -176.41   -52.149   -68.851   -4.6199   -25.992   
330028350  -13.789   -83.848    32.056    143.25   -50.493   -79.225   -3.0934   -28.146   
360028200  -17.236   -97.949    31.847    101.42   -50.979   -64.032   -.8902   -17.037   
390028050  -24.636   -97.668    31.453    58.262   -52.965   -62.873   -.0585   -9.3013   
420027900  -25.336   -15.09    31.028    13.957   -55.12   -44.198    .6356   -2.5131   
450027750  -17.622   -8.9401    30.961   -33.727   -54.509   -30.878    .4502    4.0773   
480027600  -12.766   -28.39    31.636   -95.702   -54.433   -34.413    .2014    8.27   
510027450  -10.393   -52.814    29.694    177.97   -51.893   -58.152    .6966    8.2191   
540027300  -10.323   -77.024    20.585    87.74   -51.798   -52.273    .7892    5.4012   
570027150  -10.192   -88.785    6.2217    33.484   -48.127   -51.551   -.3277    19.758   
600027000  -9.2766   -101.58   -8.9172    31.884   -48.891   -22.326   -1.2567    28.979   
630026850  -8.2672   -117.69   -16.927    59.668   -53.565   -26.945   -.1298    39.251   
660026700  -7.3857   -134.02   -23.094    86.662   -44.216   -50.865    4.4813    48.17   
690026550  -6.6261   -151.74   -27.683    156.13   -26.885   -78.967    25.047    33.661   
720026400  -6.0084   -168.38   -21.696    113.97   -41.899    94.598    10.463   -128.02   
750026250  -5.2935    174.68   -23.208    97.675   -47.912    136.69    6.3747   -119.9   
780026100  -4.6838    158.58   -25.527    76.962   -50.09    93.292    3.0692   -117.22   
810025950  -4.1008    142.25   -30.301    56.202   -50.967    22.673    1.9091   -126.14   
840025800  -3.4726    126.37   -43.591    28.683   -49.496    17.816    2.4328   -130.88   
870025650  -2.9122    110.76   -36.089   -153.01   -51.798   -34.424    2.1718   -131.4   
900025500  -2.4848    94.529   -29.378    170.8   -49.562   -20.82    2.3381   -138.95   
930025350  -1.9854    78.699   -26.314    148.29   -50.952   -49.778    3.7579   -143.51   
960025200  -1.7017    64.07   -24.63    127.57   -54.156   -88.55    4.8784   -139.31   
990025050  -1.3722    49.136   -23.838    106.58   -47.11   -98.219    4.6136   -137.21   
1020024900  -1.2179    35.778   -23.346    85.623   -55.01   -74.464    4.5245   -144.95   
1050024750  -1.0294    23.22   -23.74    66.72   -49.839   -148.87    4.8344   -155.14   
1080024600  -.9781    11.592   -23.981    50.317   -57.921    164.56    5.3911   -166.14   
1110024450  -.9074    .3653   -24.403    37.027   -61.247   -121.17    5.3413   -172.16   
1140024300  -.9111   -10.138   -24.559    26.467   -49.503   -171.95    4.3882    175.6   
1170024150  -.9168   -19.915   -24.048    8.9676   -51.229    118.72    4.5039    159.45   
1200024000  -1.0018   -29.696   -23.353   -6.5245   -44.568    92.376    5.6021    156.92   
1230023850  -1.0397   -38.19   -22.807   -28.419   -47.708    84.087    4.2349    164.43   
1260023700  -1.1686   -46.861   -22.911   -50.766   -48.799    48.37    2.8847    160.69   
1290023550  -1.1403   -54.202   -23.492   -71.249   -48.593    27.713    2.8095    159.86   
1320023400  -1.2739   -62.283   -24.314   -93.932   -51.769    42.719    1.8327    165.24   
1350023250  -1.1695   -69.855   -24.842   -111.52   -53.526   -16.272    .9256    161.23   
1380023100  -1.2709   -76.88   -25.943   -129.59   -53.014   -27.698    1.2844    156.05   
1410022950  -1.2046   -84.409   -27.362   -147.39   -49.131   -49.951    2.0835    161.13   
1440022800  -1.2684   -91.177   -27.812   -162.39   -51.961   -45.25    1.6627    164.03   
1470022650  -1.2186   -97.997   -28.795    179.97   -48.97   -50.533    2.0937    164.63   
1500022500  -1.3185   -103.81   -29.969    164.13   -50.41   -34.003    1.8469    172.69   
1530022350  -1.3268   -111.27   -31.016    146.71   -50.596   -68.923    .7982    172.66   
1560022200  -1.3269   -117.45   -31.866    131.97   -50.47   -78.97    .5955    170.28   
1590022050  -1.402   -123.88   -32.22    119.14   -52.505   -98.152    .6833    169.34   
1620021900  -1.3869   -130.24   -34.512    101.52   -50.891   -107.76    .6560    167.85   
1650021750  -1.5145   -136.66   -33.261    91.604   -52.76   -68.073    .9382    169.42   
1680021600  -1.4739   -143.06   -35.054    73.439   -48.149   -124.67    1.1798    171.85   
1710021450  -1.6068   -148.34   -36.352    60.384   -47.532   -174.12    1.1753    176.45   
1740021300  -1.611   -155.35   -34.485    40.678   -47.567   -114.96    1.2674   -179.85   
1770021150  -1.6084   -161.21   -37.026    16.08   -50.442   -170.52    .7806   -172.29   
1800021000  -1.6976   -167.88   -35.273    22.934   -46.911    172.8    .0704   -174.34   
1830020850  -1.754   -173.74   -36.291   -.4312   -50.245   -168.41    .5717   -177.99   
1860020700  -1.856    179.53   -41.324   -5.9738   -48.022   -166.6    1.6615    176.6   
1890020550  -1.8343    173.74   -40.583   -38.985   -50.181   -96.431    4.6516    170.1   
1920020400  -1.9734    167.59   -40.697   -48.871   -44.235    148.79    8.6799    174   
1950020250  -1.9208    161.15   -42.705   -37.141   -30.92    58.705    15.203    156.66   
1980020100  -2.0079    155.11   -41.839   -63.435   -15.765    4.584    25.39    69.611   
2010019950  -2.0581    148.94   -47.94   -18.299   -25.696   -32.307    15.255    49.422   
2040019800  -2.0952    142.47   -50.57   -174.5   -32.529   -35.884    9.6479    77.937   
2070019650  -2.1584    136.35   -53.876   -142.12   -42.004    101.47    1.3378    86.578   
2100019500  -2.2487    130.16   -54.538    41.526   -45.156    99.79   -1.7452    84.05   
2130019350  -2.286    123.9   -44.924    30.932   -52.992   -174.79   -4.4129    100.47   
2160019200  -2.3681    117.61   -42.385   -18.189   -45.153    58.243   -8.7107    108.25   
2190019050  -2.4294    111.91   -39.629   -76.658   -46.624    41.689   -11.073    109.19   
2220018900  -2.5656    105.7   -45.18   -93.529   -47.228   -22.86   -12.454    115.34   
2250018750  -2.5426    99.316   -43.277   -97.236   -50.257   -41.781   -11.716    129.71   
2280018600  -2.7211    93.674   -39.155   -150.1   -46.215    61.948   -10.959    153.46   
2310018450  -2.7885    87.367   -42.445   -129.11   -51.01   -23.205   -9.6367   -178.94   
2340018300  -2.9326    81.703   -42.449   -169.88   -50.599    14.167   -9.9879   -157.65   
2370018150  -2.9245    75.626   -51.879   -159.22   -46.678   -39.217   -9.366   -150.11   
2400018000  -3.076    70.539   -42.975    179.91   -52.35   -86.221   -8.3584   -146.25   
2430017850  -3.1328    64.288   -44.708    160.77   -51.25   -63.101   -6.5824   -146.24   
2460017700  -3.1884    59.575   -44.244    148.18   -45.905   -62.069   -4.0535   -143.86   
2490017550  -3.3571    54.433   -43.633    125.13   -43.364   -37.54   -1.1495   -128.24   
2520017400  -3.3825    49.238   -53.254    116.97   -40.846   -52.638   -1.4974   -120.33   
2550017250  -3.5178    43.831   -41.604    141.17   -43.009   -56.045    .1687   -125.54   
2580017100  -3.5597    39.267   -44.489    90.114   -44.296   -65.48    2.5562   -113.84   
2610016950  -3.6944    33.981   -49.219    63.608   -77.447    92.045    2.4569   -109.93   
2640016800  -3.7471    28.644   -51.109    104.85   -48.041   -143.82    2.0802   -128.34   
2670016650  -3.8233    23.784   -41.954    73.722   -45.177    8.399    3.249   -150.78   
2700016500  -3.917    18.936   -43.902    75.248   -41.702   -120.59    4.2636   -165.88   
2730016350  -4.0404    13.556   -40.725    43.378   -41.152   -102.05    3.6586   -176.29   
2760016200  -4.0536    8.6545   -39.73    7.5009   -39.693   -171.75    4.0555    178.82   
2790016050  -4.1715    4.2957   -43.136    20.282   -44.92   -151.2    3.0131   -172.68   
2820015900  -4.3183   -.3364   -48.514   -47.14   -44.626   -153.37    1.5908   -176.93   
2850015750  -4.4821   -6.1606   -63.285   -23.931   -41.379   -138.84    1.6055   -179.6   
2880015600  -4.5104   -10.787   -50.22   -18.431   -41.792    175.42    1.9601   -175.85   
2910015450  -4.7777   -15.248   -49.612   -29.788   -42.693   -156.24    1.1959   -168.59   
2940015300  -4.9324   -20.804   -45.431   -77.804   -43.076   -152.12    .6857   -170.68   
2970015150  -5.126   -25.531   -44.555   -98.534   -38.549   -161.12    .9608   -169.5   
3000015000  -5.3468   -30.12   -54.985    59.35   -40.191   -161.2    1.3268   -168.44   
3030014850  -5.5291   -35.401   -48.168    53.851   -34.338   -168.07    1.6049   -167.05   
3060014700  -5.757   -40.442   -45.23    48.45   -31.323   -171.81    1.8309   -166.04   
3090014550  -5.8952   -45.512   -38.867    1.4076   -29.825    149.45    2.3005   -171.5   
3120014400  -6.1253   -49.697   -36.211   -34.875   -25.175    119.7    3.4706   -172.77   
3150014250  -6.3753   -55.416   -36.603   -72.16   -23.919    99.668    2.7544   -166.13   
3180014100  -6.5701   -60.51   -36.874   -97.847   -28.124    74.664    1.2853   -167.59   
3210013950  -6.8042   -65.614   -38.384   -124.57   -28.836    42.44    1.3259   -171.23   
3240013800  -7.0305   -69.262   -40.729   -140.52   -30.832    12.566    1.7057   -172.31   
3270013650  -7.5154   -73.972   -40.433   -162.04   -30.18   -3.1599    1.9746   -176.52   
3300013500  -7.7694   -78.864   -43.002   -166.18   -29.459   -32.249    3.3007    176.2   
3330013350  -8.2447   -82.73   -40.742    168.15   -27.664   -24.576    4.9932   -178.61   
3360013200  -8.7123   -86.766   -42.009    146.86   -26.973   -34.937    4.443   -168.66   
3390013050  -9.26   -90.61   -41.901    116.31   -26.766   -56.773    3.1577   -170.77   
3420012900  -9.497   -93.624   -40.563    70.436   -25.423   -85.761    2.8783   -173.72   
3450012750  -9.9703   -94.473   -37.552    49.727   -24.108   -111.31    2.2884   -178.18   
3480012600  -10.254   -97.141   -33.947    12.038   -22.782   -150.03    1.9563    172.96   
3510012450  -9.4254   -99.7   -28.263   -28.998   -20.852    168.29    1.9487    165.48   
3540012300  -9.0223   -113   -26.05   -91.939   -17.915    145.78    1.9405    162.85   
3570012150  -10.198   -123.78   -27.59   -132.24   -16.89    117.49    1.9209    166.54   
3600012000  -11.248   -130.09   -28.781   -153.8   -16.238    100.12    2.2871    170.55   
3630011850  -12.116   -132.32   -28.752   -163.02   -13.849    89.897    2.7438    175.12   
3660011700  -13.238   -132.66   -27.459    177.84   -13.228    63.483    1.3465    171.95   
3690011550  -13.92   -133.3   -26.184    158.4   -14.24    26.978    .0562    166.37   
3720011400  -14.092   -131.92   -24.93    134.54   -13.277   -.0508   -.5237    162.44   
3750011250  -14.069   -131.82   -24.181    111.34   -12.174   -20.3   -.7529    161.23   
3780011100  -13.864   -134.43   -23.615    89.022   -12.771   -39.846   -1.2529    163.15   
3810010950  -13.628   -139.22   -22.966    62.823   -12.532   -64.2   -1.3418    163.59   
3840010800  -13.625   -145.23   -23.738    35.935   -10.962   -80.943   -1.3063    167.09   
3870010650  -13.686   -153.39   -24.405    16.146   -12.219   -96.346   -1.797    171.64   
3900010500  -13.454   -161.51   -25.326   -4.5827   -14.098   -117.72   -2.892    175.11   
3930010350  -13.37   -168.72   -25.806   -23.501   -13.262   -141.7   -3.4238    175.08   
3960010200  -13.603   -178.81   -26.532   -41.971   -13.953   -158.23   -3.3188    177.23   
3990010050  -13.629    169.48   -26.974   -60.101   -15.569   -174.76   -3.301   -176.33   
4020009900  -13.751    159.89   -27.647   -79.129   -16.301    167.04   -3.5131   -171.71   
4050009750  -14.2    152.37   -28.74   -99.965   -16.559    150.08   -3.5333   -170.59   
4080009600  -14.841    144.7   -28.854   -117.53   -17.345    126.35   -2.8001   -169.6   
4110009450  -14.983    140.29   -29.968   -140.08   -17.769    111.47   -1.6349   -165.34   
4140009300  -15.497    137.83   -30.092   -158.19   -19.389    100.56   -1.1381   -159.29   
4170009150  -15.726    132.99   -31.181   -177.45   -23.163    69.38   -1.1701   -159.62   
4200009000  -15.514    130.65   -31.617    161.99   -27.061    78.725   -.3423   -162.24   
4230008850  -15.294    130.24   -31.829    135.88   -28.656    99.863   -.0435   -158.09   
4260008700  -15.455    128.78   -33.238    114.4   -32.892    131.98   -.833   -160.02   
4290008550  -15.159    123.89   -32.196    94.487   -36.756    150.28   -.8189   -166   
4320008400  -14.33    123.56   -32.011    76.616   -37.354    140.87   -.7816   -166.51   
4350008250  -14.055    123.37   -32.039    57.298   -30.189    156.17   -1.6756   -169.85   
4380008100  -13.375    121.47   -30.401    39.507   -26.356    154.28   -1.1351   -178.03   
4410007950  -12.664    119.91   -30.535    23.317   -24.432    133.1    .2771   -175.36   
4440007800  -11.886    117.68   -30.215    12.581   -22.915    140.64   -.2674   -163.73   
4470007650  -11.163    114.11   -29.428   -5.246   -21.985    130.86   -1.9088   -167.01   
4500007500  -10.081    110.61   -27.427   -17.529   -19.484    116.17   -1.0961   -171.45   
4530007350  -9.397    109.84   -27.364   -34.71   -19.27    112.56   -.9066   -163.34   
4560007200  -9.0252    104.43   -25.893   -52.221   -17.943    102.58   -2.2721   -162.7   
4590007050  -8.4014    99.505   -25.053   -66.881   -16.825    74.854   -2.1639   -171.82   
4620006900  -7.9783    93.572   -24.087   -83.666   -13.951    60.267   -.6695   -172.33   
4650006750  -7.492    88.734   -23.846   -102.16   -12.368    58.156   -.2901   -165   
4680006600  -7.1144    83.986   -23.911   -118.68   -12.953    46.675   -.4136   -164.15   
4710006450  -6.7623    80.392   -24.363   -132.15   -12.938    36.782    .0512   -160.89   
4740006300  -6.6436    73.956   -24.204   -139.53   -12.221    35.43   -.3568   -156.7   
4770006150  -5.9631    67.118   -22.782   -151.37   -10.887    23.989   -.6002   -158.52   
4800006000  -5.6301    62.486   -22.092   -166.71   -10.187    9.2546   -.0468   -160.03   
4830005850  -5.3965    56.43   -22.009    176.46   -8.7249   -8.708    .2114   -158.96   
4860005700  -5.0645    50.449   -21.974    161.89   -7.672   -23.905    .3086   -162.6   
4890005550  -4.7791    45.82   -21.704    150.37   -6.6193   -28.71    1.2739   -164.05   
4920005400  -4.8098    40.379   -21.64    137.97   -5.5771   -40.185    1.5031   -161.13   
4950005250  -4.6137    33.118   -21.013    127.86   -5.2496   -57.875    1.4288   -163.92   
4980005100  -4.4486    27.739   -20.771    111.98   -4.0871   -67.025    2.0816   -166.49   
5010004950  -4.4663    22.293   -20.388    98.438   -2.3274   -82.654    2.2342   -166.06   
5040004800  -4.4371    15.418   -20.3    82.943   -2.2101   -99.65    1.8926   -166.6   
5070004650  -4.3099    10.088   -19.468    68.982   -1.376   -115.05    1.8536   -170.03   
5100004500  -4.3795    5.2652   -19.417    52.961   -.6467   -133.43    1.6246   -170.79   
5130004350  -4.3752   -.6372   -19.477    36.906   -.8078   -159    .9723   -175.78   
5160004200  -4.2223   -6.2498   -19.398    18.879    .5739    178.47    1.4626    176.14   
5190004050  -4.2301   -10.789   -19.3    5.9134    .7873    164.32    1.7519    177.17   
5220003900  -4.2477   -17.136   -19.989   -9.716    .7233    140.52    1.1438    176.29   
5250003750  -4.2352   -23.313   -20.14   -25.079    .1969    118.06    .2909    170.3   
5280003600  -4.2993   -29.548   -20.335   -42.027    1.3949    99.879    .7818    164.19   
5310003450  -4.3105   -35.258   -21.365   -55.215    .7866    83.676    .9922    170.31   
5340003300  -4.3653   -41.247   -21.588   -70.41   -.4463    63.257   -.0383    174.26   
5370003150  -4.3862   -45.942   -21.883   -86.62    .0905    45.867   -.8504    170.29   
5400003000  -4.6069   -51.368   -22.754   -99.686    .2129    19.255   -.6623    167.19   
5430002850  -4.5836   -56.957   -23.186   -117.43    .3331    3.7079    .0480    170.61   
5460002700  -4.5442   -60.638   -23.848   -136.54   -.7724   -11.316   -.8760    176.87   
5490002550  -4.4349   -63.932   -24.211   -163.2   -1.6268   -39.64   -1.7717    171.91   
5520002400  -4.2934   -67.471   -27.777    176.25   -2.5585   -67.81   -1.3852    165.18   
5550002250  -3.8621   -73.578   -30.417   -174.4   -3.1184   -83.99   -.5796    167.54   
5580002100  -3.6797   -79.548   -31.94    170.09   -5.0731   -101.79   -1.5399    172.47   
5610001950  -3.6651   -86.976   -35.299    158.91   -9.6256   -116.2   -2.4346    169.3   
5640001800  -3.5968   -93.371   -34.461    150.41   -9.2745   -139.91   -2.8134    171.73   
5670001650  -3.5007   -99.117   -37.463    142.36   -11.829   -171.13   -4.5024    170.19   
5700001500  -3.5241   -104.52   -41.739    126.95   -17.687    160.82   -4.4337    165.72   
5730001350  -3.5765   -111.4   -37.514    103.82   -15.718    152.36   -4.1367    174.97   
5760001200  -3.3691   -116.62   -42.275    71.329   -18.361    127.05   -5.3332   -177.69   
5790001050  -3.4286   -122.39   -43.654    12.295   -23.346    55.664   -5.322   -178.92   
5820000900  -3.3543   -129.08   -47.086   -17.857   -22.86    11.537   -3.5327   -169.92   
5850000750  -3.1214   -134.44   -40.767   -61.743   -21.871    13.033   -4.0883   -147.37   
5880000600  -3.1268   -139.49   -39.795   -72.822   -21.801   -25.524   -6.1749   -142.8   
5910000450  -3.0521   -146.27   -38.304   -78.736   -19.628   -32.573   -5.7569   -148.48   
5940000300  -2.7431   -150.75   -34.642   -89.561   -16.462   -49.903   -4.3988   -145.65   
5970000150  -2.7621   -155.46   -34.196   -106.13   -13.099   -67.731   -3.2381   -139.15   
6000000000  -2.6576   -161.72   -31.979   -122.51   -12.652   -73.199   -2.9772   -132.83   

