CITIFILE A.01.00
#NA VERSION HP8753ES.07.64: Feb 23, 2000
NAME DATA
VAR FREQ MAG 201
DATA S[1,1] RI
DATA S[2,1] RI
DATA S[1,2] RI
DATA S[2,2] RI
BEGIN
2.50686E-1,-2.87475E-2
2.50091E-1,-2.89154E-2
2.50244E-1,-2.85797E-2
2.50091E-1,-2.86712E-2
2.50015E-1,-2.87780E-2
2.5E-1,-2.84729E-2
2.50122E-1,-2.89764E-2
2.51098E-1,-2.88085E-2
2.50274E-1,-2.88848E-2
2.50198E-1,-2.84118E-2
2.49862E-1,-2.86560E-2
2.49404E-1,-2.85644E-2
2.49877E-1,-2.87475E-2
2.49023E-1,-2.91595E-2
2.49694E-1,-2.85797E-2
2.50274E-1,-2.87475E-2
2.50228E-1,-2.84729E-2
2.49710E-1,-2.83813E-2
2.50152E-1,-2.85186E-2
2.49664E-1,-2.82592E-2
2.50549E-1,-2.85644E-2
2.50152E-1,-2.84423E-2
2.49893E-1,-2.81829E-2
2.50030E-1,-2.82440E-2
2.50167E-1,-2.88543E-2
2.50305E-1,-2.89764E-2
2.49877E-1,-2.90832E-2
2.49404E-1,-2.90679E-2
2.49725E-1,-2.83050E-2
2.49771E-1,-2.83966E-2
2.49786E-1,-2.85186E-2
2.49252E-1,-2.91595E-2
2.50228E-1,-2.92358E-2
2.50351E-1,-2.94647E-2
2.5E-1,-2.91748E-2
2.50045E-1,-2.87628E-2
2.5E-1,-2.89154E-2
2.49038E-1,-2.88848E-2
2.50351E-1,-2.89306E-2
2.49939E-1,-2.85797E-2
2.49588E-1,-2.81372E-2
2.50396E-1,-2.95562E-2
2.49801E-1,-3.01818E-2
2.50457E-1,-2.94189E-2
2.50473E-1,-2.82745E-2
2.50366E-1,-2.92816E-2
2.50167E-1,-2.86865E-2
2.50366E-1,-2.85797E-2
2.50183E-1,-2.86407E-2
2.49618E-1,-2.87170E-2
2.49740E-1,-2.89001E-2
2.49069E-1,-2.89917E-2
2.49755E-1,-2.90832E-2
2.50351E-1,-2.9953E-2
2.49359E-1,-2.95867E-2
2.49801E-1,-2.92968E-2
2.49893E-1,-2.90985E-2
2.50808E-1,-2.95562E-2
2.49740E-1,-2.94952E-2
2.49435E-1,-2.93426E-2
2.49359E-1,-2.99377E-2
2.50244E-1,-2.93579E-2
2.50518E-1,-2.92358E-2
2.49771E-1,-2.91595E-2
2.50289E-1,-2.96173E-2
2.50152E-1,-2.94952E-2
2.50320E-1,-2.93121E-2
2.50244E-1,-2.9953E-2
2.49969E-1,-3.01666E-2
2.50228E-1,-2.94189E-2
2.50549E-1,-2.98004E-2
2.50442E-1,-2.94647E-2
2.50442E-1,-2.98461E-2
2.50396E-1,-2.95562E-2
2.50793E-1,-2.96630E-2
2.50244E-1,-3.00750E-2
2.49939E-1,-2.97546E-2
2.50564E-1,-3.02429E-2
2.50900E-1,-3.02887E-2
2.50137E-1,-3.03039E-2
2.50412E-1,-3.01208E-2
2.50274E-1,-3.05481E-2
2.50549E-1,-3.03649E-2
2.50473E-1,-3.02429E-2
2.50137E-1,-3.06396E-2
2.50808E-1,-3.06549E-2
2.50930E-1,-3.03802E-2
2.50518E-1,-3.08380E-2
2.50961E-1,-3.05938E-2
2.50839E-1,-3.04718E-2
2.50595E-1,-3.07006E-2
2.50778E-1,-3.11584E-2
2.50717E-1,-3.11737E-2
2.50762E-1,-3.08990E-2
2.51052E-1,-3.15246E-2
2.50686E-1,-3.11279E-2
2.51144E-1,-3.14178E-2
2.51129E-1,-3.15856E-2
2.51327E-1,-3.14788E-2
2.51098E-1,-3.15246E-2
2.51403E-1,-3.16314E-2
2.51327E-1,-3.17535E-2
2.51678E-1,-3.21044E-2
2.50869E-1,-3.23181E-2
2.51495E-1,-3.24859E-2
2.51876E-1,-3.24707E-2
2.51617E-1,-3.23638E-2
2.51480E-1,-3.24859E-2
2.51739E-1,-3.28064E-2
2.51983E-1,-3.28674E-2
2.52105E-1,-3.23791E-2
2.51907E-1,-3.31420E-2
2.52395E-1,-3.33557E-2
2.52319E-1,-3.34930E-2
2.52365E-1,-3.36303E-2
2.52426E-1,-3.38134E-2
2.52670E-1,-3.40118E-2
2.52716E-1,-3.40576E-2
2.53067E-1,-3.41644E-2
2.53006E-1,-3.46221E-2
2.53570E-1,-3.48663E-2
2.53418E-1,-3.50799E-2
2.53616E-1,-3.51715E-2
2.53707E-1,-3.52478E-2
2.53509E-1,-3.60107E-2
2.53997E-1,-3.64532E-2
2.54226E-1,-3.63006E-2
2.54852E-1,-3.66516E-2
2.55035E-1,-3.69873E-2
2.55157E-1,-3.77807E-2
2.55249E-1,-3.78723E-2
2.55325E-1,-3.862E-2
2.55752E-1,-3.89556E-2
2.56408E-1,-3.94134E-2
2.56515E-1,-4.01153E-2
2.57293E-1,-4.07867E-2
2.57614E-1,-4.12902E-2
2.58224E-1,-4.2099E-2
2.58773E-1,-4.32434E-2
2.59323E-1,-4.41589E-2
2.59811E-1,-4.52270E-2
2.60711E-1,-4.64935E-2
2.61550E-1,-4.76074E-2
2.62237E-1,-4.91027E-2
2.63031E-1,-5.05981E-2
2.63793E-1,-5.24292E-2
2.6474E-1,-5.38330E-2
2.65579E-1,-5.58166E-2
2.66571E-1,-5.79834E-2
2.67684E-1,-5.96771E-2
2.68585E-1,-6.20117E-2
2.69882E-1,-6.44378E-2
2.70645E-1,-6.62689E-2
2.71850E-1,-6.87408E-2
2.72522E-1,-7.10907E-2
2.73834E-1,-7.35015E-2
2.74810E-1,-7.60498E-2
2.76107E-1,-7.84759E-2
2.77145E-1,-8.11462E-2
2.78259E-1,-8.37554E-2
2.79113E-1,-8.61053E-2
2.80273E-1,-8.87451E-2
2.81372E-1,-9.11560E-2
2.82348E-1,-9.35821E-2
2.83233E-1,-9.62829E-2
2.84439E-1,-9.90295E-2
2.85263E-1,-1.01593E-1
2.86346E-1,-1.04370E-1
2.87353E-1,-1.07208E-1
2.88269E-1,-1.09939E-1
2.89032E-1,-1.12274E-1
2.90023E-1,-1.15173E-1
2.90924E-1,-1.17965E-1
2.91732E-1,-1.20620E-1
2.92419E-1,-1.23428E-1
2.93258E-1,-1.26434E-1
2.93838E-1,-1.29287E-1
2.94586E-1,-1.32125E-1
2.95059E-1,-1.34887E-1
2.95578E-1,-1.38031E-1
2.95959E-1,-1.41189E-1
2.96249E-1,-1.44226E-1
2.96402E-1,-1.47491E-1
2.96478E-1,-1.50939E-1
2.96371E-1,-1.54388E-1
2.96157E-1,-1.57943E-1
2.95791E-1,-1.61407E-1
2.95379E-1,-1.64947E-1
2.94937E-1,-1.68792E-1
2.94342E-1,-1.72515E-1
2.93624E-1,-1.76269E-1
2.93029E-1,-1.80191E-1
2.92236E-1,-1.83685E-1
2.91336E-1,-1.87423E-1
2.90588E-1,-1.91009E-1
2.89627E-1,-1.94458E-1
2.88772E-1,-1.98150E-1
2.87811E-1,-2.02117E-1
2.86926E-1,-2.05566E-1
2.86087E-1,-2.09350E-1
2.84896E-1,-2.13317E-1
END
BEGIN
1.91626E0,-4.01342E0
1.91210E0,-4.01025E0
1.91430E0,-4.01147E0
1.91528E0,-4.01391E0
1.91552E0,-4.02368E0
1.91210E0,-4.00878E0
1.90820E0,-4.01147E0
1.91162E0,-4.02197E0
1.91064E0,-4.01367E0
1.91943E0,-4.01391E0
1.91015E0,-4.00634E0
1.91015E0,-4.00317E0
1.91259E0,-4.00415E0
1.89672E0,-4.00170E0
1.91235E0,-4.00756E0
1.90625E0,-4.00634E0
1.91626E0,-4.00976E0
1.91943E0,-4.00097E0
1.91479E0,-4.00195E0
1.91796E0,-3.99853E0
1.91870E0,-4.01171E0
1.92211E0,-4.00488E0
1.91992E0,-3.99829E0
1.91870E0,-3.99902E0
1.92187E0,-4.00390E0
1.91357E0,-4.00683E0
1.90698E0,-4.00244E0
1.90710E0,-3.98706E0
1.91748E0,-3.99365E0
1.91662E0,-3.98657E0
1.91296E0,-3.99047E0
1.90734E0,-3.98889E0
1.91491E0,-3.98693E0
1.90771E0,-3.99682E0
1.91076E0,-3.99169E0
1.91479E0,-3.99560E0
1.91149E0,-3.98632E0
1.9104E0,-3.97778E0
1.91626E0,-3.99023E0
1.90881E0,-3.98620E0
1.91772E0,-3.98071E0
1.91967E0,-3.98596E0
1.90893E0,-3.98217E0
1.91442E0,-3.98730E0
1.91638E0,-3.98364E0
1.91394E0,-3.97924E0
1.91638E0,-3.97888E0
1.91369E0,-3.98022E0
1.91772E0,-3.97155E0
1.91528E0,-3.97216E0
1.92053E0,-3.97363E0
1.91320E0,-3.96533E0
1.91333E0,-3.97033E0
1.90979E0,-3.97326E0
1.91223E0,-3.96154E0
1.91149E0,-3.96508E0
1.91467E0,-3.96447E0
1.91137E0,-3.96716E0
1.91052E0,-3.96191E0
1.91052E0,-3.95849E0
1.90844E0,-3.95361E0
1.91467E0,-3.95446E0
1.91137E0,-3.94897E0
1.90527E0,-3.94885E0
1.91198E0,-3.94799E0
1.90686E0,-3.94409E0
1.90661E0,-3.94213E0
1.90771E0,-3.94335E0
1.90258E0,-3.93908E0
1.90551E0,-3.93176E0
1.90234E0,-3.93798E0
1.90856E0,-3.93164E0
1.90124E0,-3.93078E0
1.90417E0,-3.92602E0
1.90258E0,-3.92297E0
1.89917E0,-3.92065E0
1.90063E0,-3.91674E0
1.89929E0,-3.91223E0
1.90100E0,-3.91308E0
1.89758E0,-3.90673E0
1.89636E0,-3.90527E0
1.89404E0,-3.89990E0
1.89257E0,-3.89978E0
1.88977E0,-3.8927E0
1.88806E0,-3.88769E0
1.88830E0,-3.89245E0
1.88476E0,-3.88525E0
1.88354E0,-3.88061E0
1.88220E0,-3.87695E0
1.88342E0,-3.87207E0
1.87768E0,-3.86840E0
1.87658E0,-3.86474E0
1.87268E0,-3.86145E0
1.87573E0,-3.85424E0
1.86816E0,-3.85437E0
1.86657E0,-3.84704E0
1.86230E0,-3.84191E0
1.86108E0,-3.84021E0
1.85705E0,-3.83508E0
1.85583E0,-3.82727E0
1.85058E0,-3.82238E0
1.85009E0,-3.81799E0
1.84606E0,-3.81359E0
1.84008E0,-3.80444E0
1.83459E0,-3.80114E0
1.83313E0,-3.79772E0
1.82934E0,-3.79113E0
1.82507E0,-3.78271E0
1.81970E0,-3.77673E0
1.81445E0,-3.77209E0
1.81066E0,-3.76464E0
1.80041E0,-3.75915E0
1.79858E0,-3.75256E0
1.79260E0,-3.74548E0
1.78515E0,-3.73669E0
1.78039E0,-3.73083E0
1.77258E0,-3.72497E0
1.76635E0,-3.71569E0
1.75793E0,-3.71057E0
1.74853E0,-3.70288E0
1.74304E0,-3.69592E0
1.73034E0,-3.68627E0
1.72399E0,-3.67785E0
1.71386E0,-3.66723E0
1.70129E0,-3.65820E0
1.68945E0,-3.64965E0
1.67956E0,-3.63940E0
1.66845E0,-3.63208E0
1.65710E0,-3.62280E0
1.64282E0,-3.61157E0
1.62817E0,-3.59826E0
1.61059E0,-3.58349E0
1.59619E0,-3.57348E0
1.57897E0,-3.56054E0
1.55896E0,-3.54614E0
1.54357E0,-3.53320E0
1.52429E0,-3.51647E0
1.50231E0,-3.49731E0
1.47778E0,-3.47778E0
1.45532E0,-3.45788E0
1.43298E0,-3.43786E0
1.40673E0,-3.41687E0
1.38513E0,-3.39050E0
1.35693E0,-3.36413E0
1.33239E0,-3.33606E0
1.30517E0,-3.30957E0
1.27990E0,-3.28393E0
1.25537E0,-3.25512E0
1.23010E0,-3.22399E0
1.20532E0,-3.19067E0
1.17871E0,-3.15673E0
1.15417E0,-3.12670E0
1.12902E0,-3.09252E0
1.10327E0,-3.05603E0
1.07849E0,-3.02331E0
1.05554E0,-2.98828E0
1.03002E0,-2.95019E0
1.00817E0,-2.91931E0
9.85229E-1,-2.88635E0
9.61425E-1,-2.85205E0
9.38842E-1,-2.81787E0
9.16381E-1,-2.78222E0
8.95507E-1,-2.75268E0
8.74877E-1,-2.71862E0
8.52539E-1,-2.68530E0
8.32885E-1,-2.65344E0
8.10546E-1,-2.61950E0
7.88818E-1,-2.58691E0
7.68676E-1,-2.55383E0
7.49145E-1,-2.52294E0
7.30590E-1,-2.49035E0
7.11425E-1,-2.46032E0
6.91284E-1,-2.42810E0
6.73339E-1,-2.39892E0
6.53808E-1,-2.36816E0
6.35498E-1,-2.33837E0
6.16943E-1,-2.30786E0
5.99365E-1,-2.27844E0
5.83252E-1,-2.25158E0
5.65307E-1,-2.22180E0
5.47973E-1,-2.19360E0
5.31860E-1,-2.16528E0
5.15136E-1,-2.13659E0
4.98291E-1,-2.10803E0
4.82299E-1,-2.08044E0
4.65820E-1,-2.05188E0
4.50073E-1,-2.02502E0
4.34936E-1,-1.99755E0
4.19616E-1,-1.97070E0
4.0448E-1,-1.94415E0
3.88977E-1,-1.91723E0
3.73596E-1,-1.88903E0
3.59619E-1,-1.86566E0
3.44909E-1,-1.84112E0
3.30871E-1,-1.81701E0
3.17321E-1,-1.79357E0
3.01513E-1,-1.76904E0
2.85644E-1,-1.74450E0
2.71667E-1,-1.72143E0
2.55737E-1,-1.69879E0
2.39135E-1,-1.67541E0
END
BEGIN
2.22273E-4,-2.16513E-4
7.73258E-5,-1.15063E-4
-1.55985E-4,-3.74376E-4
1.76630E-4,0.58017E-4
0.67189E-4,-3.41355E-4
4.29935E-5,-1.02262E-4
1.13546E-4,-1.74529E-4
-1.21295E-5,-2.81408E-4
-1.78515E-5,-6.84559E-5
2.51010E-4,-2.03356E-4
1.11080E-4,-2.05881E-4
8.07382E-5,-9.11094E-5
-1.05585E-4,-5.93438E-6
-1.53973E-4,-1.14679E-4
0.50127E-4,-2.92539E-4
1.75274E-4,-6.43879E-5
2.26125E-4,-1.73412E-4
0.33214E-4,-1.74209E-4
-5.13345E-6,-2.13027E-4
9.22195E-5,-4.78141E-5
1.93908E-4,-2.00867E-4
2.30610E-4,-1.26957E-4
-1.54048E-4,-2.13116E-4
2.79009E-4,-1.21146E-4
1.69105E-4,0.08471E-4
0.66831E-4,-1.91338E-4
1.08383E-4,-1.18739E-4
2.38955E-4,-1.71542E-4
0.70214E-4,-1.59241E-4
-1.21071E-6,6.18994E-5
1.15335E-4,-2.48700E-4
-5.72018E-5,-1.73859E-5
-2.27354E-5,-9.33371E-5
2.40817E-4,-2.24724E-4
3.23709E-5,-3.62787E-5
1.22830E-4,-1.22785E-4
1.83917E-4,-2.27026E-4
0.45098E-4,-2.18249E-4
9.76175E-5,-1.07679E-4
1.52878E-4,-4.07472E-5
-1.10209E-4,-2.03684E-4
-3.47495E-5,-3.20091E-4
-3.2112E-5,0.57444E-5
1.51716E-4,-1.11557E-4
-8.31298E-5,-2.01240E-5
1.58242E-4,-6.33597E-5
4.66480E-5,-1.17491E-4
1.73665E-4,-9.56654E-5
9.40375E-5,-1.06267E-4
1.24663E-4,-7.62864E-5
1.67191E-4,-8.16434E-5
1.98334E-4,-2.09577E-4
1.48303E-4,-1.41091E-4
7.70241E-5,-8.29622E-5
1.10030E-4,-1.44422E-4
0.86285E-4,-1.44861E-4
7.60704E-5,-7.92816E-5
0.53279E-4,-1.27241E-4
0.46253E-4,-1.24365E-4
1.65440E-4,-6.81281E-5
5.25787E-5,-9.18954E-5
1.75744E-4,-2.57417E-5
0.799E-4,-1.37187E-4
7.67149E-5,-1.11535E-5
0.82835E-4,-1.24640E-4
-4.34666E-5,-2.09182E-4
0.32015E-4,-1.60306E-4
0.55201E-4,-1.63815E-4
2.08020E-5,-9.85451E-5
7.03111E-5,-5.64605E-5
8.89226E-5,-1.21995E-4
1.03466E-4,-1.36725E-4
0.15407E-4,-1.28559E-4
4.88236E-5,-1.21928E-4
7.47628E-5,-7.70278E-5
5.00455E-5,-8.15689E-5
-1.75349E-5,-7.19986E-5
0.59209E-4,-1.40726E-4
8.18036E-5,-6.90743E-5
6.79828E-5,-7.66851E-5
0.83617E-4,-1.53385E-4
7.83391E-5,-8.31112E-5
0.31016E-4,-1.59233E-4
0.66012E-4,-1.41598E-4
1.09985E-4,-1.33901E-4
7.06389E-5,-1.02464E-4
1.05306E-4,-1.13997E-4
1.02136E-4,-9.48570E-5
0.73343E-4,-2.01121E-4
0.37424E-4,-1.39378E-4
1.07742E-4,-1.48989E-4
9.56840E-5,-5.90011E-5
1.36040E-4,-1.24037E-4
1.04010E-4,-1.19041E-4
0.43846E-4,-1.41002E-4
5.78202E-5,-1.10589E-4
0.93676E-4,-1.55709E-4
0.96082E-4,-1.85541E-4
3.16463E-5,-1.01733E-4
1.16206E-4,-1.41456E-4
9.96366E-5,-1.07854E-4
0.56542E-4,-1.52163E-4
4.53516E-5,-1.17797E-4
0.43056E-4,-1.38543E-4
8.12225E-5,-1.02940E-4
1.09054E-4,-1.32784E-4
1.01886E-4,-1.20546E-4
5.69224E-5,-1.13468E-4
5.33387E-5,-8.23699E-5
5.28171E-5,-1.07783E-4
0.40799E-4,-1.31733E-4
0.56609E-4,-1.43460E-4
1.01886E-4,-1.27524E-4
0.52332E-4,-1.22912E-4
0.74945E-4,-1.27360E-4
7.3988E-5,-8.39270E-5
0.63285E-4,-1.27479E-4
0.76763E-4,-1.28828E-4
1.13688E-4,-1.10678E-4
8.80435E-5,-1.00396E-4
0.45821E-4,-1.47692E-4
1.06692E-4,-1.26741E-4
0.50365E-4,-1.38483E-4
0.36425E-4,-1.44541E-4
0.73663E-4,-1.26786E-4
6.42351E-5,-1.11535E-4
1.24841E-4,-7.57426E-5
0.80995E-4,-1.31547E-4
0.92305E-4,-1.25929E-4
1.00810E-4,-9.58331E-5
0.99495E-4,-1.64859E-4
0.97766E-4,-1.29886E-4
0.76174E-4,-1.22897E-4
0.74051E-4,-1.33119E-4
1.19090E-4,-1.22927E-4
0.56795E-4,-1.28485E-4
6.84745E-5,-1.15938E-4
7.62902E-5,-1.17149E-4
0.94041E-4,-1.39571E-4
0.61668E-4,-1.37172E-4
1.06096E-4,-1.22658E-4
5.12488E-5,-8.67359E-5
0.65729E-4,-1.40242E-4
0.7236E-4,-1.22219E-4
0.72427E-4,-1.52885E-4
0.85867E-4,-1.23545E-4
0.45746E-4,-1.3192E-4
0.81092E-4,-1.48139E-4
5.69485E-5,-1.02836E-4
0.54970E-4,-1.29580E-4
0.78901E-4,-1.30459E-4
5.61215E-5,-1.19905E-4
0.38333E-4,-1.31055E-4
0.68932E-4,-1.54092E-4
0.78037E-4,-1.40704E-4
6.87167E-5,-1.11330E-4
5.95897E-5,-9.42125E-5
0.69588E-4,-1.57646E-4
4.57093E-5,-1.13602E-4
0.70966E-4,-1.27993E-4
7.97473E-5,-1.11058E-4
0.63791E-4,-1.40398E-4
9.37208E-5,-1.12563E-4
0.45910E-4,-1.41203E-4
0.81673E-4,-1.26108E-4
8.68216E-5,-1.21597E-4
0.87931E-4,-1.39959E-4
0.69186E-4,-1.45629E-4
0.74073E-4,-1.31323E-4
0.58248E-4,-1.25080E-4
8.08797E-5,-1.16791E-4
0.58129E-4,-1.57356E-4
0.86285E-4,-1.27732E-4
0.82075E-4,-1.42857E-4
0.61065E-4,-1.34535E-4
0.8706E-4,-1.32679E-4
0.85532E-4,-1.32210E-4
7.53700E-5,-1.05150E-4
7.03036E-5,-1.21980E-4
0.85264E-4,-1.27986E-4
0.79363E-4,-1.23962E-4
0.76338E-4,-1.34907E-4
6.47231E-5,-1.21220E-4
0.79311E-4,-1.28716E-4
8.15540E-5,-1.13271E-4
6.39781E-5,-1.19403E-4
0.87849E-4,-1.30690E-4
0.80116E-4,-1.25601E-4
7.21067E-5,-1.14351E-4
0.77821E-4,-1.22599E-4
0.71689E-4,-1.32322E-4
0.86918E-4,-1.29632E-4
0.80429E-4,-1.28306E-4
0.82597E-4,-1.30750E-4
7.25947E-5,-1.04270E-4
0.67554E-4,-1.22994E-4
7.40066E-5,-1.21600E-4
0.69432E-4,-1.26779E-4
0.94026E-4,-1.37098E-4
0.76934E-4,-1.29886E-4
0.76830E-4,-1.36666E-4
END
BEGIN
1.94358E-3,1.01795E-2
1.99651E-3,1.01018E-2
1.95455E-3,1.02491E-2
1.81102E-3,9.63687E-3
2.02035E-3,9.85622E-3
2.32744E-3,1.00464E-2
2.27642E-3,9.90676E-3
1.89971E-3,9.62162E-3
2.20871E-3,9.57679E-3
1.78909E-3,9.56487E-3
2.0504E-3,9.65070E-3
1.99365E-3,9.72366E-3
2.31790E-3,9.84287E-3
2.31742E-3,9.76944E-3
2.12812E-3,9.80281E-3
2.07042E-3,9.93824E-3
2.03132E-3,9.84478E-3
2.08711E-3,9.66167E-3
2.25400E-3,9.87291E-3
1.93214E-3,9.54341E-3
2.14004E-3,1.01442E-2
1.97982E-3,9.92870E-3
2.01082E-3,9.89580E-3
2.14004E-3,9.92679E-3
2.15005E-3,9.62925E-3
2.20918E-3,9.51385E-3
1.95503E-3,9.76371E-3
1.97315E-3,9.86480E-3
2.02417E-3,9.78088E-3
2.11000E-3,9.94110E-3
2.17056E-3,9.88864E-3
2.19106E-3,9.91153E-3
1.91068E-3,9.89675E-3
2.12383E-3,9.97591E-3
1.93500E-3,9.79757E-3
1.94025E-3,9.67979E-3
1.96027E-3,9.54723E-3
2.10094E-3,9.84382E-3
2.10666E-3,9.87577E-3
1.94454E-3,9.70363E-3
1.93786E-3,9.92107E-3
2.03561E-3,9.69743E-3
2.00462E-3,9.65929E-3
2.04134E-3,9.82284E-3
2.04801E-3,9.89007E-3
2.07853E-3,9.98210E-3
2.02655E-3,9.78612E-3
1.94454E-3,9.81283E-3
1.97362E-3,9.79042E-3
1.93262E-3,9.86623E-3
2.02179E-3,9.84430E-3
2.03180E-3,9.92584E-3
1.99747E-3,9.7332E-3
1.93214E-3,9.82666E-3
2.03275E-3,9.80758E-3
1.9207E-3,9.75370E-3
2.1348E-3,9.78946E-3
1.94597E-3,9.83810E-3
2.08044E-3,9.85240E-3
1.97410E-3,9.90819E-3
1.98316E-3,9.76800E-3
1.91736E-3,9.72843E-3
1.95550E-3,9.79900E-3
2.00748E-3,9.75418E-3
2.15292E-3,9.88864E-3
2.10189E-3,9.78231E-3
2.06565E-3,9.73415E-3
2.10380E-3,9.72986E-3
2.07138E-3,9.88054E-3
1.95169E-3,1.00040E-2
2.02274E-3,9.78469E-3
2.03180E-3,9.81187E-3
1.97458E-3,9.85574E-3
1.91879E-3,9.82093E-3
1.94978E-3,9.87577E-3
1.99794E-3,9.86480E-3
1.99222E-3,9.89007E-3
2.02131E-3,9.82761E-3
2.06279E-3,9.83429E-3
1.96552E-3,9.85479E-3
1.91354E-3,9.82093E-3
1.93548E-3,9.78612E-3
1.94311E-3,9.76896E-3
2.00748E-3,9.82284E-3
1.97839E-3,9.75322E-3
2.07185E-3,9.77230E-3
2.00986E-3,9.86337E-3
2.03323E-3,9.85050E-3
1.98888E-3,9.86051E-3
2.03323E-3,9.80424E-3
1.90353E-3,9.85240E-3
1.93119E-3,9.87768E-3
1.91402E-3,9.80186E-3
1.92260E-3,9.86576E-3
1.97696E-3,9.80234E-3
2.04181E-3,9.83142E-3
1.99079E-3,9.91153E-3
1.97410E-3,9.87958E-3
1.966E-3,9.78708E-3
2.02608E-3,9.81426E-3
2.0051E-3,9.82713E-3
2.02083E-3,9.86623E-3
1.98507E-3,9.81569E-3
1.98888E-3,9.88531E-3
1.99747E-3,9.84907E-3
2.00128E-3,9.88388E-3
1.99317E-3,9.902E-3
2.00462E-3,9.91535E-3
2.00080E-3,9.84048E-3
1.95980E-3,9.83238E-3
1.96456E-3,9.85622E-3
1.99127E-3,9.86528E-3
1.95550E-3,9.85956E-3
2.01273E-3,9.81950E-3
1.99556E-3,9.88245E-3
1.89256E-3,9.84621E-3
2.00939E-3,9.91630E-3
1.89828E-3,9.91678E-3
1.92213E-3,9.90867E-3
1.97267E-3,9.88197E-3
1.91259E-3,9.85336E-3
1.93977E-3,9.86528E-3
1.92642E-3,9.85717E-3
1.98984E-3,9.83095E-3
1.91164E-3,9.86814E-3
1.93166E-3,9.80377E-3
1.89828E-3,9.85145E-3
1.97506E-3,9.85050E-3
1.85442E-3,9.85479E-3
1.94978E-3,9.86194E-3
1.94263E-3,9.88292E-3
1.93309E-3,9.87196E-3
1.97124E-3,9.83810E-3
1.94168E-3,9.87720E-3
1.92546E-3,9.83047E-3
1.94406E-3,9.88102E-3
1.89924E-3,9.86814E-3
1.90019E-3,9.85288E-3
1.93071E-3,9.86671E-3
1.92499E-3,9.88578E-3
1.94692E-3,9.87577E-3
1.89828E-3,9.83429E-3
1.97029E-3,9.86146E-3
1.96456E-3,9.88197E-3
1.94072E-3,9.87243E-3
1.91688E-3,9.85240E-3
1.95741E-3,9.89913E-3
1.92976E-3,9.85574E-3
1.95360E-3,9.89246E-3
1.94692E-3,9.89580E-3
1.92022E-3,9.88340E-3
1.93357E-3,9.89484E-3
1.94501E-3,9.89294E-3
1.93786E-3,9.87815E-3
1.90973E-3,9.88483E-3
1.93548E-3,9.86576E-3
1.91640E-3,9.88912E-3
1.91021E-3,9.89294E-3
1.96313E-3,9.88435E-3
1.90782E-3,9.90247E-3
1.91927E-3,9.91058E-3
1.93691E-3,9.91153E-3
1.91497E-3,9.90867E-3
1.93929E-3,9.87291E-3
1.91450E-3,9.91916E-3
1.92213E-3,9.89246E-3
1.92737E-3,9.88197E-3
1.90448E-3,9.89341E-3
1.90162E-3,9.91201E-3
1.91831E-3,9.88912E-3
1.91068E-3,9.89532E-3
1.90258E-3,9.88912E-3
1.89590E-3,9.89151E-3
1.93357E-3,9.92441E-3
1.92356E-3,9.87005E-3
1.90401E-3,9.90963E-3
1.91545E-3,9.88626E-3
1.91068E-3,9.89294E-3
1.91736E-3,9.88817E-3
1.92642E-3,9.92775E-3
1.87778E-3,9.88674E-3
1.93262E-3,9.89913E-3
1.89352E-3,9.90438E-3
1.88016E-3,9.82523E-3
1.86586E-3,9.96208E-3
1.94883E-3,9.82666E-3
1.89733E-3,9.93394E-3
1.87778E-3,9.88960E-3
1.95264E-3,9.87625E-3
1.89113E-3,9.94443E-3
1.90210E-3,9.85002E-3
1.81102E-3,9.87148E-3
1.93595E-3,9.94491E-3
1.84488E-3,9.93108E-3
1.83677E-3,9.95445E-3
1.91593E-3,9.87768E-3
1.88255E-3,9.91869E-3
1.87444E-3,9.95826E-3
1.93262E-3,9.93251E-3
1.77478E-3,9.91916E-3
1.97267E-3,9.85813E-3
END

