CITIFILE A.01.00
#NA VERSION HP8753ES.07.64: Feb 23, 2000
NAME FORMATTED
VAR FREQ MAG 201
DATA S[1,1] RI
DATA S[2,1] RI
DATA S[1,2] RI
DATA S[2,2] RI
BEGIN
-1.19609E1,0E0
-1.19804E1,0E0
-1.19765E1,0E0
-1.19814E1,0E0
-1.19838E1,0E0
-1.19853E1,0E0
-1.19794E1,0E0
-1.19467E1,0E0
-1.19746E1,0E0
-1.1979E1,0E0
-1.19897E1,0E0
-1.20058E1,0E0
-1.19887E1,0E0
-1.20166E1,0E0
-1.19956E1,0E0
-1.19751E1,0E0
-1.19775E1,0E0
-1.19960E1,0E0
-1.19799E1,0E0
-1.19980E1,0E0
-1.19663E1,0E0
-1.19804E1,0E0
-1.19902E1,0E0
-1.19853E1,0E0
-1.19780E1,0E0
-1.19731E1,0E0
-1.19873E1,0E0
-1.20039E1,0E0
-1.19956E1,0E0
-1.19936E1,0E0
-1.19926E1,0E0
-1.20087E1,0E0
-1.19746E1,0E0
-1.19697E1,0E0
-1.19829E1,0E0
-1.19829E1,0E0
-1.19838E1,0E0
-1.20170E1,0E0
-1.19716E1,0E0
-1.19873E1,0E0
-1.20009E1,0E0
-1.19677E1,0E0
-1.19853E1,0E0
-1.19663E1,0E0
-1.19702E1,0E0
-1.19697E1,0E0
-1.1979E1,0E0
-1.19726E1,0E0
-1.19785E1,0E0
-1.19975E1,0E0
-1.19926E1,0E0
-1.20156E1,0E0
-1.19917E1,0E0
-1.19677E1,0E0
-1.20029E1,0E0
-1.19892E1,0E0
-1.19868E1,0E0
-1.19536E1,0E0
-1.19902E1,0E0
-1.20014E1,0E0
-1.20019E1,0E0
-1.19736E1,0E0
-1.19648E1,0E0
-1.19907E1,0E0
-1.19711E1,0E0
-1.19760E1,0E0
-1.19711E1,0E0
-1.19711E1,0E0
-1.19799E1,0E0
-1.19736E1,0E0
-1.19614E1,0E0
-1.19663E1,0E0
-1.19648E1,0E0
-1.19677E1,0E0
-1.19536E1,0E0
-1.19707E1,0E0
-1.19824E1,0E0
-1.19589E1,0E0
-1.19472E1,0E0
-1.19736E1,0E0
-1.19648E1,0E0
-1.19677E1,0E0
-1.19589E1,0E0
-1.19624E1,0E0
-1.19721E1,0E0
-1.19492E1,0E0
-1.19462E1,0E0
-1.19580E1,0E0
-1.19443E1,0E0
-1.19487E1,0E0
-1.19560E1,0E0
-1.19482E1,0E0
-1.19502E1,0E0
-1.19497E1,0E0
-1.19370E1,0E0
-1.19511E1,0E0
-1.19345E1,0E0
-1.19340E1,0E0
-1.19277E1,0E0
-1.19355E1,0E0
-1.19248E1,0E0
-1.19267E1,0E0
-1.19130E1,0E0
-1.19399E1,0E0
-1.19179E1,0E0
-1.19047E1,0E0
-1.19140E1,0E0
-1.19184E1,0E0
-1.19082E1,0E0
-1.18994E1,0E0
-1.18974E1,0E0
-1.19008E1,0E0
-1.18833E1,0E0
-1.18857E1,0E0
-1.18833E1,0E0
-1.18803E1,0E0
-1.18710E1,0E0
-1.18696E1,0E0
-1.18574E1,0E0
-1.18569E1,0E0
-1.18369E1,0E0
-1.18413E1,0E0
-1.18339E1,0E0
-1.18305E1,0E0
-1.18335E1,0E0
-1.18154E1,0E0
-1.18081E1,0E0
-1.17856E1,0E0
-1.17778E1,0E0
-1.17700E1,0E0
-1.17666E1,0E0
-1.17602E1,0E0
-1.17441E1,0E0
-1.17202E1,0E0
-1.17128E1,0E0
-1.16840E1,0E0
-1.16709E1,0E0
-1.16464E1,0E0
-1.16220E1,0E0
-1.15991E1,0E0
-1.15776E1,0E0
-1.15410E1,0E0
-1.15078E1,0E0
-1.14765E1,0E0
-1.14423E1,0E0
-1.14067E1,0E0
-1.13681E1,0E0
-1.13286E1,0E0
-1.12832E1,0E0
-1.12373E1,0E0
-1.11928E1,0E0
-1.11362E1,0E0
-1.10996E1,0E0
-1.10444E1,0E0
-1.10063E1,0E0
-1.09482E1,0E0
-1.08989E1,0E0
-1.08413E1,0E0
-1.07890E1,0E0
-1.07348E1,0E0
-1.06899E1,0E0
-1.06337E1,0E0
-1.05810E1,0E0
-1.05317E1,0E0
-1.04824E1,0E0
-1.04238E1,0E0
-1.03769E1,0E0
-1.03208E1,0E0
-1.02661E1,0E0
-1.02143E1,0E0
-1.01709E1,0E0
-1.01157E1,0E0
-1.00634E1,0E0
-1.00151E1,0E0
-9.96826E0,0E0
-9.91503E0,0E0
-9.86962E0,0E0
-9.81982E0,0E0
-9.77783E0,0E0
-9.72998E0,0E0
-9.68505E0,0E0
-9.64355E0,0E0
-9.60205E0,0E0
-9.55957E0,0E0
-9.52099E0,0E0
-9.48291E0,0E0
-9.44873E0,0E0
-9.41406E0,0E0
-9.375E0,0E0
-9.34082E0,0E0
-9.30761E0,0E0
-9.26904E0,0E0
-9.23974E0,0E0
-9.20849E0,0E0
-9.17529E0,0E0
-9.14746E0,0E0
-9.11328E0,0E0
-9.07714E0,0E0
-9.04589E0,0E0
-9.00781E0,0E0
-8.97363E0,0E0
END
BEGIN
1.29619E1,0E0
1.29526E1,0E0
1.29570E1,0E0
1.29619E1,0E0
1.29794E1,0E0
1.29502E1,0E0
1.29516E1,0E0
1.29731E1,0E0
1.29575E1,0E0
1.29653E1,0E0
1.29443E1,0E0
1.29384E1,0E0
1.29423E1,0E0
1.29248E1,0E0
1.29482E1,0E0
1.29409E1,0E0
1.29555E1,0E0
1.29428E1,0E0
1.29404E1,0E0
1.29370E1,0E0
1.29609E1,0E0
1.29516E1,0E0
1.29384E1,0E0
1.29384E1,0E0
1.29497E1,0E0
1.29482E1,0E0
1.29345E1,0E0
1.29077E1,0E0
1.29282E1,0E0
1.29145E1,0E0
1.29184E1,0E0
1.29111E1,0E0
1.29140E1,0E0
1.29252E1,0E0
1.29189E1,0E0
1.29292E1,0E0
1.29101E1,0E0
1.28940E1,0E0
1.29209E1,0E0
1.29077E1,0E0
1.29052E1,0E0
1.29165E1,0E0
1.29003E1,0E0
1.29140E1,0E0
1.29091E1,0E0
1.28994E1,0E0
1.29008E1,0E0
1.29008E1,0E0
1.28891E1,0E0
1.28881E1,0E0
1.28950E1,0E0
1.28740E1,0E0
1.28833E1,0E0
1.28852E1,0E0
1.28667E1,0E0
1.28720E1,0E0
1.28740E1,0E0
1.28759E1,0E0
1.28657E1,0E0
1.28598E1,0E0
1.28491E1,0E0
1.28559E1,0E0
1.28437E1,0E0
1.28378E1,0E0
1.28422E1,0E0
1.28310E1,0E0
1.28271E1,0E0
1.28305E1,0E0
1.28183E1,0E0
1.28076E1,0E0
1.28159E1,0E0
1.28100E1,0E0
1.28022E1,0E0
1.27963E1,0E0
1.27895E1,0E0
1.27822E1,0E0
1.27763E1,0E0
1.27670E1,0E0
1.27705E1,0E0
1.27558E1,0E0
1.27519E1,0E0
1.27407E1,0E0
1.27387E1,0E0
1.27236E1,0E0
1.27133E1,0E0
1.27221E1,0E0
1.27060E1,0E0
1.26962E1,0E0
1.26884E1,0E0
1.26806E1,0E0
1.26694E1,0E0
1.26616E1,0E0
1.26518E1,0E0
1.26416E1,0E0
1.26352E1,0E0
1.26206E1,0E0
1.26074E1,0E0
1.26030E1,0E0
1.25898E1,0E0
1.25747E1,0E0
1.25610E1,0E0
1.25522E1,0E0
1.25405E1,0E0
1.25185E1,0E0
1.25073E1,0E0
1.25E1,0E0
1.24843E1,0E0
1.24648E1,0E0
1.24487E1,0E0
1.24350E1,0E0
1.24179E1,0E0
1.23984E1,0E0
1.23842E1,0E0
1.23657E1,0E0
1.23422E1,0E0
1.23266E1,0E0
1.23085E1,0E0
1.22851E1,0E0
1.22680E1,0E0
1.22446E1,0E0
1.22260E1,0E0
1.21962E1,0E0
1.21743E1,0E0
1.21445E1,0E0
1.21152E1,0E0
1.20878E1,0E0
1.20585E1,0E0
1.20341E1,0E0
1.20058E1,0E0
1.19702E1,0E0
1.19306E1,0E0
1.18847E1,0E0
1.18515E1,0E0
1.18095E1,0E0
1.17622E1,0E0
1.17216E1,0E0
1.16694E1,0E0
1.16098E1,0E0
1.15463E1,0E0
1.14843E1,0E0
1.14213E1,0E0
1.13525E1,0E0
1.12753E1,0E0
1.11918E1,0E0
1.11069E1,0E0
1.10229E1,0E0
1.09418E1,0E0
1.08530E1,0E0
1.07578E1,0E0
1.06567E1,0E0
1.05512E1,0E0
1.04560E1,0E0
1.03491E1,0E0
1.02348E1,0E0
1.01293E1,0E0
1.00185E1,0E0
9.89648E0,0E0
9.79443E0,0E0
9.68505E0,0E0
9.57031E0,0E0
9.45507E0,0E0
9.33496E0,0E0
9.23193E0,0E0
9.11474E0,0E0
8.99658E0,0E0
8.88427E0,0E0
8.76123E0,0E0
8.64160E0,0E0
8.52002E0,0E0
8.40478E0,0E0
8.28369E0,0E0
8.16845E0,0E0
8.04345E0,0E0
7.92944E0,0E0
7.80712E0,0E0
7.68774E0,0E0
7.56372E0,0E0
7.44311E0,0E0
7.33154E0,0E0
7.20629E0,0E0
7.08593E0,0E0
6.9646E0,0E0
6.8396E0,0E0
6.71362E0,0E0
6.59033E0,0E0
6.46118E0,0E0
6.33789E0,0E0
6.21093E0,0E0
6.08471E0,0E0
5.95849E0,0E0
5.82861E0,0E0
5.69116E0,0E0
5.57495E0,0E0
5.45141E0,0E0
5.32861E0,0E0
5.20800E0,0E0
5.07910E0,0E0
4.94824E0,0E0
4.82446E0,0E0
4.69995E0,0E0
4.56982E0,0E0
END
BEGIN
-7.01679E1,0E0
-7.71640E1,0E0
-6.78398E1,0E0
-7.46171E1,0E0
-6.91718E1,0E0
-7.91015E1,0E0
-7.36328E1,0E0
-7.10078E1,0E0
-8.30078E1,0E0
-6.98164E1,0E0
-7.26210E1,0E0
-7.82929E1,0E0
-7.95156E1,0E0
-7.43359E1,0E0
-7.05507E1,0E0
-7.45781E1,0E0
-7.09062E1,0E0
-7.50273E1,0E0
-7.34296E1,0E0
-7.96718E1,0E0
-7.10820E1,0E0
-7.15937E1,0E0
-7.16054E1,0E0
-7.03398E1,0E0
-7.54296E1,0E0
-7.38671E1,0E0
-7.58789E1,0E0
-7.06289E1,0E0
-7.51874E1,0E0
-8.41679E1,0E0
-7.12421E1,0E0
-8.44687E1,0E0
-8.03515E1,0E0
-6.96484E1,0E0
-8.62656E1,0E0
-7.52070E1,0E0
-7.06874E1,0E0
-7.30429E1,0E0
-7.67539E1,0E0
-7.60156E1,0E0
-7.27070E1,0E0
-6.98437E1,0E0
-8.97304E1,0E0
-7.45039E1,0E0
-8.13593E1,0E0
-7.53710E1,0E0
-7.79648E1,0E0
-7.40585E1,0E0
-7.69609E1,0E0
-7.67070E1,0E0
-7.46093E1,0E0
-7.07968E1,0E0
-7.37812E1,0E0
-7.89257E1,0E0
-7.48203E1,0E0
-7.54648E1,0E0
-7.91835E1,0E0
-7.72070E1,0E0
-7.75468E1,0E0
-7.49492E1,0E0
-7.95078E1,0E0
-7.50117E1,0E0
-7.59882E1,0E0
-8.22148E1,0E0
-7.65E1,0E0
-7.34062E1,0E0
-7.57343E1,0E0
-7.52460E1,0E0
-7.99414E1,0E0
-8.08984E1,0E0
-7.64257E1,0E0
-7.53203E1,0E0
-7.77578E1,0E0
-7.76328E1,0E0
-7.93867E1,0E0
-8.03828E1,0E0
-8.26054E1,0E0
-7.63281E1,0E0
-7.94101E1,0E0
-7.97890E1,0E0
-7.51562E1,0E0
-7.88476E1,0E0
-7.58007E1,0E0
-7.61249E1,0E0
-7.52265E1,0E0
-7.81015E1,0E0
-7.61835E1,0E0
-7.71171E1,0E0
-7.33906E1,0E0
-7.68164E1,0E0
-7.47109E1,0E0
-7.89843E1,0E0
-7.46992E1,0E0
-7.60234E1,0E0
-7.66171E1,0E0
-7.80781E1,0E0
-7.48125E1,0E0
-7.36015E1,0E0
-7.94531E1,0E0
-7.47499E1,0E0
-7.66640E1,0E0
-7.57929E1,0E0
-7.79804E1,0E0
-7.67695E1,0E0
-7.76484E1,0E0
-7.53007E1,0E0
-7.60390E1,0E0
-7.79296E1,0E0
-8.01640E1,0E0
-7.84179E1,0E0
-7.72109E1,0E0
-7.62382E1,0E0
-7.57460E1,0E0
-7.74882E1,0E0
-7.66093E1,0E0
-7.90273E1,0E0
-7.69374E1,0E0
-7.64804E1,0E0
-7.59921E1,0E0
-7.74921E1,0E0
-7.62148E1,0E0
-7.56171E1,0E0
-7.66328E1,0E0
-7.65351E1,0E0
-7.66757E1,0E0
-7.78085E1,0E0
-7.67148E1,0E0
-7.62226E1,0E0
-7.61328E1,0E0
-7.71367E1,0E0
-7.43125E1,0E0
-7.57812E1,0E0
-7.68007E1,0E0
-7.63476E1,0E0
-7.53359E1,0E0
-7.70507E1,0E0
-7.74179E1,0E0
-7.70898E1,0E0
-7.54804E1,0E0
-7.64570E1,0E0
-7.58007E1,0E0
-7.99375E1,0E0
-7.62031E1,0E0
-7.69531E1,0E0
-7.54335E1,0E0
-7.64531E1,0E0
-7.71015E1,0E0
-7.54492E1,0E0
-7.85976E1,0E0
-7.70312E1,0E0
-7.63398E1,0E0
-7.75664E1,0E0
-7.72968E1,0E0
-7.54531E1,0E0
-7.58710E1,0E0
-7.76679E1,0E0
-7.90585E1,0E0
-7.52734E1,0E0
-7.82421E1,0E0
-7.66953E1,0E0
-7.72851E1,0E0
-7.62382E1,0E0
-7.66875E1,0E0
-7.65703E1,0E0
-7.64648E1,0E0
-7.65156E1,0E0
-7.56367E1,0E0
-7.58515E1,0E0
-7.64335E1,0E0
-7.72070E1,0E0
-7.69531E1,0E0
-7.55078E1,0E0
-7.62421E1,0E0
-7.56640E1,0E0
-7.66132E1,0E0
-7.59921E1,0E0
-7.60585E1,0E0
-7.77656E1,0E0
-7.70312E1,0E0
-7.62617E1,0E0
-7.66445E1,0E0
-7.61953E1,0E0
-7.72421E1,0E0
-7.64101E1,0E0
-7.71054E1,0E0
-7.73671E1,0E0
-7.60585E1,0E0
-7.65390E1,0E0
-7.73828E1,0E0
-7.67617E1,0E0
-7.64531E1,0E0
-7.61367E1,0E0
-7.63984E1,0E0
-7.62148E1,0E0
-7.79218E1,0E0
-7.70585E1,0E0
-7.69335E1,0E0
-7.68007E1,0E0
-7.55859E1,0E0
-7.64257E1,0E0
-7.60976E1,0E0
END
BEGIN
-3.96914E1,0E0
-3.97460E1,0E0
-3.96328E1,0E0
-4.01718E1,0E0
-3.99472E1,0E0
-3.97343E1,0E0
-3.98593E1,0E0
-4.01699E1,0E0
-4.01523E1,0E0
-4.02382E1,0E0
-4.01171E1,0E0
-4.00664E1,0E0
-3.99042E1,0E0
-3.99667E1,0E0
-3.99746E1,0E0
-3.98710E1,0E0
-3.99550E1,0E0
-4.01015E1,0E0
-3.98906E1,0E0
-4.02324E1,0E0
-3.96875E1,0E0
-3.98945E1,0E0
-3.99160E1,0E0
-3.98671E1,0E0
-4.01171E1,0E0
-4.02050E1,0E0
-4.00371E1,0E0
-3.99492E1,0E0
-4.00117E1,0E0
-3.98613E1,0E0
-3.98945E1,0E0
-3.98710E1,0E0
-3.99316E1,0E0
-3.98300E1,0E0
-4.00117E1,0E0
-4.01132E1,0E0
-4.02246E1,0E0
-3.99433E1,0E0
-3.99160E1,0E0
-4.00917E1,0E0
-3.99062E1,0E0
-4.00800E1,0E0
-4.01191E1,0E0
-3.99726E1,0E0
-3.99140E1,0E0
-3.98320E1,0E0
-4.00058E1,0E0
-3.99980E1,0E0
-4.00117E1,0E0
-3.99550E1,0E0
-3.99570E1,0E0
-3.98867E1,0E0
-4.00566E1,0E0
-3.99882E1,0E0
-3.99863E1,0E0
-4.00527E1,0E0
-3.99843E1,0E0
-3.99765E1,0E0
-3.99414E1,0E0
-3.99121E1,0E0
-4.00293E1,0E0
-4.00742E1,0E0
-4.00078E1,0E0
-4.00371E1,0E0
-3.98964E1,0E0
-3.99960E1,0E0
-4.00429E1,0E0
-4.00410E1,0E0
-3.99179E1,0E0
-3.98359E1,0E0
-4.00078E1,0E0
-3.99843E1,0E0
-3.99570E1,0E0
-3.99960E1,0E0
-3.99433E1,0E0
-3.99453E1,0E0
-3.99238E1,0E0
-3.99726E1,0E0
-3.99589E1,0E0
-3.99589E1,0E0
-3.99960E1,0E0
-4.00214E1,0E0
-4.00351E1,0E0
-3.99785E1,0E0
-4.00429E1,0E0
-4.00097E1,0E0
-3.99433E1,0E0
-3.99511E1,0E0
-3.99492E1,0E0
-3.99902E1,0E0
-3.99707E1,0E0
-3.99453E1,0E0
-4.00117E1,0E0
-3.99570E1,0E0
-4.00019E1,0E0
-3.99648E1,0E0
-3.99062E1,0E0
-3.99355E1,0E0
-4.00156E1,0E0
-3.99824E1,0E0
-3.99746E1,0E0
-3.99394E1,0E0
-3.99882E1,0E0
-3.99296E1,0E0
-3.99589E1,0E0
-3.99277E1,0E0
-3.99140E1,0E0
-3.99003E1,0E0
-3.99648E1,0E0
-3.99785E1,0E0
-3.99570E1,0E0
-3.99453E1,0E0
-3.99570E1,0E0
-3.99804E1,0E0
-3.99296E1,0E0
-3.99785E1,0E0
-3.98984E1,0E0
-3.99179E1,0E0
-3.99199E1,0E0
-3.99335E1,0E0
-3.99687E1,0E0
-3.99531E1,0E0
-3.99628E1,0E0
-3.99746E1,0E0
-3.99570E1,0E0
-4.00078E1,0E0
-3.99726E1,0E0
-3.99609E1,0E0
-3.99765E1,0E0
-3.99550E1,0E0
-3.99394E1,0E0
-3.99492E1,0E0
-3.99726E1,0E0
-3.99433E1,0E0
-3.99863E1,0E0
-3.99394E1,0E0
-3.99589E1,0E0
-3.99707E1,0E0
-3.99550E1,0E0
-3.99394E1,0E0
-3.99433E1,0E0
-3.99863E1,0E0
-3.99531E1,0E0
-3.99355E1,0E0
-3.99472E1,0E0
-3.99687E1,0E0
-3.99218E1,0E0
-3.99628E1,0E0
-3.99296E1,0E0
-3.99277E1,0E0
-3.99414E1,0E0
-3.99296E1,0E0
-3.99296E1,0E0
-3.99433E1,0E0
-3.99433E1,0E0
-3.99550E1,0E0
-3.99375E1,0E0
-3.99355E1,0E0
-3.99335E1,0E0
-3.99277E1,0E0
-3.99199E1,0E0
-3.99160E1,0E0
-3.99218E1,0E0
-3.99472E1,0E0
-3.99121E1,0E0
-3.99335E1,0E0
-3.99414E1,0E0
-3.99355E1,0E0
-3.99199E1,0E0
-3.99375E1,0E0
-3.99335E1,0E0
-3.99394E1,0E0
-3.99394E1,0E0
-3.99042E1,0E0
-3.99531E1,0E0
-3.99218E1,0E0
-3.99394E1,0E0
-3.99355E1,0E0
-3.99375E1,0E0
-3.99042E1,0E0
-3.99453E1,0E0
-3.99257E1,0E0
-3.99277E1,0E0
-3.99980E1,0E0
-3.98847E1,0E0
-3.99843E1,0E0
-3.99023E1,0E0
-3.99433E1,0E0
-3.99433E1,0E0
-3.98945E1,0E0
-3.99726E1,0E0
-3.99687E1,0E0
-3.98867E1,0E0
-3.99140E1,0E0
-3.98945E1,0E0
-3.99472E1,0E0
-3.99179E1,0E0
-3.98867E1,0E0
-3.98984E1,0E0
-3.99355E1,0E0
-3.99550E1,0E0
END

