CITIFILE A.01.01
#NA VERSION HP8510C.07.14
NAME DATA
#NA REGISTER 1
VAR FREQ MAG 801
DATA S[1,1] RI
SEG_LIST_BEGIN
SEG 50000000 3000000000 801
SEG_LIST_END
COMMENT       YEAR MONTH DAY HOUR MINUTE SECONDS
CONSTANT TIME 2016   07   04  09    04    55.0
BEGIN
8.50799E-1,-5.23895E-1
8.28186E-1,-5.57373E-1
8.04931E-1,-5.90087E-1
7.80700E-1,-6.21337E-1
7.54608E-1,-6.51886E-1
7.28454E-1,-6.79840E-1
7.0224E-1,-7.08435E-1
6.74285E-1,-7.35565E-1
6.45233E-1,-7.62054E-1
6.11541E-1,-7.87506E-1
5.84167E-1,-8.10241E-1
5.52856E-1,-8.31878E-1
5.21179E-1,-8.52996E-1
4.87823E-1,-8.72070E-1
4.54406E-1,-8.90167E-1
4.20105E-1,-9.0625E-1
3.86322E-1,-9.21386E-1
3.51593E-1,-9.35058E-1
3.16803E-1,-9.47174E-1
2.81341E-1,-9.58404E-1
2.46398E-1,-9.68078E-1
2.11425E-1,-9.75982E-1
1.76086E-1,-9.83306E-1
1.40838E-1,-9.89074E-1
1.05468E-1,-9.93072E-1
0.70587E-1,-9.95910E-1
0.36010E-1,-9.97833E-1
0.00610E-1,-9.98291E-1
-0.33355E-1,-9.97345E-1
-0.67077E-1,-9.95147E-1
-1.00158E-1,-9.92095E-1
-1.33483E-1,-9.88250E-1
-1.65802E-1,-9.83734E-1
-1.98211E-1,-9.77569E-1
-2.31689E-1,-9.70031E-1
-2.62359E-1,-9.62646E-1
-2.93426E-1,-9.53460E-1
-3.25286E-1,-9.42047E-1
-3.54034E-1,-9.32586E-1
-3.82690E-1,-9.21142E-1
-4.15832E-1,-9.03472E-1
-4.39727E-1,-8.94195E-1
-4.67132E-1,-8.80645E-1
-4.94140E-1,-8.65325E-1
-5.20019E-1,-8.48815E-1
-5.45623E-1,-8.32183E-1
-5.70495E-1,-8.14300E-1
-5.94116E-1,-7.96600E-1
-6.17462E-1,-7.77618E-1
-6.39556E-1,-7.56439E-1
-6.60614E-1,-7.35534E-1
-6.79809E-1,-7.14263E-1
-6.98211E-1,-6.92169E-1
-7.14050E-1,-6.69677E-1
-7.29003E-1,-6.47460E-1
-7.39776E-1,-6.26281E-1
-7.51098E-1,-6.10015E-1
-7.67578E-1,-5.92468E-1
-7.80761E-1,-5.74829E-1
-7.96478E-1,-5.57006E-1
-8.11248E-1,-5.37292E-1
-8.26019E-1,-5.17791E-1
-8.40179E-1,-4.97467E-1
-8.54705E-1,-4.76532E-1
-8.68225E-1,-4.54986E-1
-8.80371E-1,-4.29779E-1
-8.92730E-1,-4.10980E-1
-9.04144E-1,-3.87939E-1
-9.14581E-1,-3.64868E-1
-9.25079E-1,-3.40942E-1
-9.33441E-1,-3.15765E-1
-9.41803E-1,-2.93975E-1
-9.49737E-1,-2.70690E-1
-9.56024E-1,-2.46856E-1
-9.61029E-1,-2.22473E-1
-9.68841E-1,-2.06268E-1
-9.69421E-1,-1.75323E-1
-9.73358E-1,-1.53045E-1
-9.76104E-1,-1.30218E-1
-9.78881E-1,-1.06781E-1
-9.81597E-1,-0.85113E-1
-9.83429E-1,-0.62744E-1
-9.84954E-1,-0.40557E-1
-9.85687E-1,-0.17700E-1
-9.85839E-1,0.04516E-1
-9.85199E-1,0.26886E-1
-9.83795E-1,0.48980E-1
-9.82635E-1,0.71167E-1
-9.80133E-1,0.92620E-1
-9.77722E-1,1.14288E-1
-9.74823E-1,1.36016E-1
-9.70977E-1,1.56463E-1
-9.66857E-1,1.77185E-1
-9.61853E-1,1.98150E-1
-9.56634E-1,2.17834E-1
-9.51690E-1,2.37274E-1
-9.45587E-1,2.57293E-1
-9.39819E-1,2.76397E-1
-9.33319E-1,2.94921E-1
-9.27002E-1,3.13446E-1
-9.20105E-1,3.32183E-1
-9.13696E-1,3.50555E-1
-9.07135E-1,3.68804E-1
-8.99688E-1,3.86505E-1
-8.91967E-1,4.04388E-1
-8.83941E-1,4.22668E-1
-8.75427E-1,4.40490E-1
-8.66821E-1,4.58343E-1
-8.58154E-1,4.76226E-1
-8.47839E-1,4.93347E-1
-8.37738E-1,5.11077E-1
-8.27789E-1,5.27221E-1
-8.17321E-1,5.43701E-1
-8.06640E-1,5.60180E-1
-7.95379E-1,5.75653E-1
-7.84118E-1,5.91064E-1
-7.72674E-1,6.06262E-1
-7.60620E-1,6.21795E-1
-7.47863E-1,6.36261E-1
-7.36053E-1,6.50604E-1
-7.23205E-1,6.64123E-1
-7.10144E-1,6.77795E-1
-6.97265E-1,6.90765E-1
-6.84448E-1,7.03277E-1
-6.71478E-1,7.15576E-1
-6.57867E-1,7.27844E-1
-6.44317E-1,7.39837E-1
-6.31561E-1,7.51434E-1
-6.17614E-1,7.62481E-1
-6.03790E-1,7.73986E-1
-5.90271E-1,7.84973E-1
-5.75805E-1,7.94952E-1
-5.61035E-1,8.05328E-1
-5.46966E-1,8.14666E-1
-5.32806E-1,8.24310E-1
-5.18646E-1,8.33160E-1
-5.04150E-1,8.42010E-1
-4.89685E-1,8.50708E-1
-4.75250E-1,8.59558E-1
-4.59289E-1,8.68042E-1
-4.43054E-1,8.75518E-1
-4.29443E-1,8.83697E-1
-4.14276E-1,8.90899E-1
-3.98498E-1,8.97949E-1
-3.82904E-1,9.04388E-1
-3.66485E-1,9.11163E-1
-3.51623E-1,9.17297E-1
-3.35968E-1,9.23217E-1
-3.19519E-1,9.29107E-1
-3.01361E-1,9.34143E-1
-2.87200E-1,9.39392E-1
-2.70507E-1,9.44091E-1
-2.54241E-1,9.47967E-1
-2.38769E-1,9.52179E-1
-2.22076E-1,9.56268E-1
-2.05413E-1,9.58923E-1
-1.89300E-1,9.62219E-1
-1.72790E-1,9.65667E-1
-1.50299E-1,9.66613E-1
-1.39526E-1,9.70672E-1
-1.24054E-1,9.73388E-1
-1.07788E-1,9.74731E-1
-0.91461E-1,9.77447E-1
-0.75836E-1,9.78637E-1
-0.59356E-1,9.79309E-1
-0.43151E-1,9.80529E-1
-0.27313E-1,9.81475E-1
-0.11474E-1,9.81872E-1
0.03997E-1,9.82147E-1
0.14892E-1,9.85107E-1
0.35888E-1,9.81231E-1
0.51666E-1,9.80835E-1
0.67535E-1,9.79980E-1
0.83129E-1,9.79400E-1
0.98510E-1,9.77813E-1
1.13922E-1,9.76959E-1
1.29699E-1,9.74578E-1
1.45324E-1,9.73938E-1
1.55822E-1,9.64202E-1
1.76147E-1,9.69116E-1
1.91406E-1,9.66339E-1
2.06298E-1,9.63531E-1
2.21527E-1,9.59930E-1
2.36633E-1,9.57092E-1
2.51403E-1,9.53582E-1
2.66449E-1,9.49188E-1
2.81097E-1,9.45495E-1
2.96051E-1,9.40673E-1
3.1073E-1,9.36157E-1
3.25103E-1,9.31304E-1
3.39172E-1,9.26239E-1
3.54095E-1,9.20776E-1
3.68042E-1,9.15069E-1
3.82507E-1,9.09362E-1
3.96820E-1,9.02923E-1
4.10675E-1,8.96637E-1
4.24560E-1,8.89892E-1
4.38171E-1,8.83331E-1
4.52087E-1,8.76403E-1
4.65301E-1,8.68896E-1
4.78576E-1,8.61145E-1
4.91729E-1,8.54156E-1
5.04913E-1,8.4552E-1
5.17639E-1,8.38012E-1
5.30639E-1,8.29925E-1
5.43335E-1,8.21411E-1
5.55725E-1,8.12927E-1
5.67810E-1,8.04504E-1
5.80719E-1,7.94952E-1
5.92102E-1,7.85797E-1
6.04400E-1,7.77130E-1
6.15966E-1,7.67822E-1
6.27746E-1,7.58575E-1
6.39068E-1,7.48931E-1
6.50451E-1,7.39379E-1
6.61834E-1,7.29309E-1
6.72058E-1,7.19543E-1
6.83258E-1,7.09381E-1
6.93542E-1,6.99371E-1
7.04895E-1,6.88598E-1
7.15393E-1,6.77398E-1
7.25402E-1,6.68609E-1
7.35809E-1,6.57623E-1
7.44781E-1,6.46881E-1
7.54241E-1,6.35650E-1
7.63977E-1,6.24603E-1
7.73864E-1,6.13555E-1
7.82623E-1,6.02264E-1
7.91534E-1,5.90423E-1
7.99987E-1,5.79345E-1
8.09021E-1,5.67413E-1
8.17474E-1,5.55694E-1
8.26293E-1,5.40435E-1
8.34137E-1,5.28076E-1
8.41949E-1,5.18432E-1
8.49731E-1,5.06225E-1
8.56658E-1,4.93377E-1
8.64349E-1,4.81079E-1
8.70727E-1,4.68627E-1
8.78265E-1,4.55505E-1
8.84307E-1,4.42382E-1
8.91204E-1,4.29168E-1
8.97094E-1,4.15832E-1
9.02801E-1,4.01580E-1
9.09149E-1,3.88336E-1
9.14001E-1,3.74694E-1
9.19647E-1,3.57208E-1
9.23034E-1,3.37951E-1
9.29687E-1,3.32397E-1
9.34997E-1,3.19946E-1
9.39086E-1,3.06030E-1
9.43481E-1,2.91992E-1
9.47082E-1,2.78106E-1
9.51049E-1,2.63824E-1
9.55688E-1,2.49237E-1
9.59045E-1,2.35992E-1
9.61425E-1,2.21527E-1
9.64996E-1,2.07336E-1
9.67437E-1,1.92443E-1
9.70123E-1,1.78070E-1
9.73205E-1,1.63635E-1
9.75280E-1,1.49719E-1
9.77447E-1,1.36688E-1
9.82177E-1,1.28326E-1
9.80896E-1,1.06475E-1
9.82635E-1,0.91369E-1
9.83306E-1,0.76995E-1
9.85137E-1,0.62896E-1
9.85595E-1,0.48187E-1
9.86389E-1,0.34393E-1
9.87457E-1,0.19928E-1
9.87701E-1,0.06164E-1
9.87701E-1,-0.08850E-1
9.87121E-1,-0.23681E-1
9.87121E-1,-0.36651E-1
9.86724E-1,-0.50201E-1
9.89318E-1,-0.51971E-1
9.85656E-1,-0.76293E-1
9.83337E-1,-0.96069E-1
9.81475E-1,-1.1026E-1
9.80316E-1,-1.24328E-1
9.78210E-1,-1.38885E-1
9.75647E-1,-1.53656E-1
9.73785E-1,-1.67663E-1
9.70245E-1,-1.82006E-1
9.67742E-1,-1.96441E-1
9.64721E-1,-2.10479E-1
9.61090E-1,-2.24456E-1
9.57702E-1,-2.39166E-1
9.54315E-1,-2.52349E-1
9.50042E-1,-2.67456E-1
9.45953E-1,-2.81280E-1
9.40673E-1,-2.95715E-1
9.36492E-1,-3.08868E-1
9.31274E-1,-3.23577E-1
9.25933E-1,-3.37463E-1
9.20715E-1,-3.51257E-1
9.14947E-1,-3.65234E-1
9.09515E-1,-3.78295E-1
9.03564E-1,-3.92150E-1
8.97796E-1,-4.05273E-1
8.91082E-1,-4.19281E-1
8.84429E-1,-4.32525E-1
8.78082E-1,-4.45831E-1
8.71124E-1,-4.58953E-1
8.64196E-1,-4.71984E-1
8.56292E-1,-4.85290E-1
8.49151E-1,-4.9823E-1
8.41491E-1,-5.11047E-1
8.33953E-1,-5.24108E-1
8.26080E-1,-5.36529E-1
8.18145E-1,-5.49011E-1
8.09051E-1,-5.61615E-1
8.01147E-1,-5.73944E-1
7.91687E-1,-5.85968E-1
7.8302E-1,-5.98236E-1
7.74383E-1,-6.10199E-1
7.64984E-1,-6.21978E-1
7.55432E-1,-6.33606E-1
7.45391E-1,-6.45355E-1
7.35473E-1,-6.57287E-1
7.25799E-1,-6.68182E-1
7.15179E-1,-6.79473E-1
7.04528E-1,-6.90826E-1
6.94213E-1,-7.01629E-1
6.82983E-1,-7.12188E-1
6.71966E-1,-7.22839E-1
6.60614E-1,-7.33123E-1
6.48742E-1,-7.43377E-1
6.36932E-1,-7.53662E-1
6.24725E-1,-7.63549E-1
6.12213E-1,-7.73803E-1
5.99487E-1,-7.82714E-1
5.87310E-1,-7.91748E-1
5.74523E-1,-8.00964E-1
5.61492E-1,-8.09753E-1
5.48400E-1,-8.18542E-1
5.34576E-1,-8.27056E-1
5.21026E-1,-8.34747E-1
5.07415E-1,-8.43322E-1
4.93682E-1,-8.51287E-1
4.79248E-1,-8.59069E-1
4.65057E-1,-8.66149E-1
4.50805E-1,-8.73168E-1
4.36615E-1,-8.80645E-1
4.21661E-1,-8.87756E-1
4.06951E-1,-8.94317E-1
3.92517E-1,-9.00573E-1
3.76831E-1,-9.06616E-1
3.61389E-1,-9.12750E-1
3.46160E-1,-9.18914E-1
3.30749E-1,-9.24408E-1
3.14819E-1,-9.28863E-1
2.99041E-1,-9.33746E-1
2.83660E-1,-9.38842E-1
2.67883E-1,-9.43267E-1
2.51892E-1,-9.47357E-1
2.35076E-1,-9.51995E-1
2.19543E-1,-9.55902E-1
2.03582E-1,-9.59564E-1
1.86798E-1,-9.62707E-1
1.70257E-1,-9.65972E-1
1.53991E-1,-9.69177E-1
1.36077E-1,-9.70947E-1
1.19903E-1,-9.73632E-1
1.02691E-1,-9.75250E-1
0.85968E-1,-9.77081E-1
0.69122E-1,-9.77935E-1
0.51849E-1,-9.78973E-1
0.34606E-1,-9.79400E-1
0.17334E-1,-9.79827E-1
0.00091E-1,-9.80590E-1
-0.17150E-1,-9.79736E-1
-0.34851E-1,-9.79553E-1
-0.52673E-1,-9.78698E-1
-0.70587E-1,-9.76928E-1
-0.88348E-1,-9.75280E-1
-1.06018E-1,-9.73510E-1
-1.23199E-1,-9.70642E-1
-1.41632E-1,-9.67346E-1
-1.58966E-1,-9.64752E-1
-1.76879E-1,-9.60296E-1
-1.94793E-1,-9.56756E-1
-2.12707E-1,-9.52117E-1
-2.30529E-1,-9.47570E-1
-2.48565E-1,-9.42321E-1
-2.66357E-1,-9.36706E-1
-2.84301E-1,-9.30511E-1
-3.01757E-1,-9.24621E-1
-3.18817E-1,-9.18396E-1
-3.36639E-1,-9.11407E-1
-3.54461E-1,-9.04327E-1
-3.70910E-1,-8.97033E-1
-3.88824E-1,-8.88336E-1
-4.06494E-1,-8.79730E-1
-4.23553E-1,-8.72283E-1
-4.40399E-1,-8.62793E-1
-4.57458E-1,-8.53149E-1
-4.74273E-1,-8.43780E-1
-4.91424E-1,-8.34167E-1
-5.08819E-1,-8.23852E-1
-5.25787E-1,-8.12744E-1
-5.42602E-1,-8.00811E-1
-5.59143E-1,-7.88757E-1
-5.75195E-1,-7.76397E-1
-5.90972E-1,-7.64312E-1
-6.06231E-1,-7.50793E-1
-6.22497E-1,-7.38555E-1
-6.37939E-1,-7.25158E-1
-6.53961E-1,-7.10540E-1
-6.68792E-1,-6.96563E-1
-6.83349E-1,-6.81335E-1
-6.98181E-1,-6.66198E-1
-7.12127E-1,-6.50085E-1
-7.26654E-1,-6.33544E-1
-7.39959E-1,-6.17828E-1
-7.52990E-1,-6.00067E-1
-7.67089E-1,-5.82946E-1
-7.79571E-1,-5.65338E-1
-7.91839E-1,-5.47058E-1
-8.03833E-1,-5.27984E-1
-8.15277E-1,-5.08850E-1
-8.27209E-1,-4.88891E-1
-8.38043E-1,-4.69207E-1
-8.48846E-1,-4.47998E-1
-8.58184E-1,-4.27032E-1
-8.67584E-1,-4.05853E-1
-8.76342E-1,-3.83728E-1
-8.85620E-1,-3.61908E-1
-8.92883E-1,-3.38684E-1
-8.99932E-1,-3.16192E-1
-9.06707E-1,-2.92297E-1
-9.12902E-1,-2.68890E-1
-9.18762E-1,-2.45300E-1
-9.23675E-1,-2.19879E-1
-9.27520E-1,-1.95098E-1
-9.30999E-1,-1.71295E-1
-9.33502E-1,-1.46240E-1
-9.36950E-1,-1.21521E-1
-9.38476E-1,-0.96527E-1
-9.39758E-1,-0.70892E-1
-9.40551E-1,-0.44281E-1
-9.40399E-1,-0.18249E-1
-9.39483E-1,0.08453E-1
-9.38140E-1,0.34515E-1
-9.35882E-1,0.60882E-1
-9.32983E-1,0.87921E-1
-9.29534E-1,1.14868E-1
-9.24438E-1,1.41601E-1
-9.18487E-1,1.67968E-1
-9.13391E-1,1.94519E-1
-9.06341E-1,2.21801E-1
-8.98468E-1,2.48535E-1
-8.90197E-1,2.75573E-1
-8.80493E-1,3.02520E-1
-8.69781E-1,3.30017E-1
-8.5849E-1,3.55621E-1
-8.45184E-1,3.83239E-1
-8.31207E-1,4.09698E-1
-8.16925E-1,4.34783E-1
-8.02337E-1,4.60022E-1
-7.86315E-1,4.8526E-1
-7.68829E-1,5.09429E-1
-7.51220E-1,5.3302E-1
-7.32269E-1,5.57006E-1
-7.13470E-1,5.80261E-1
-6.92901E-1,6.03515E-1
-6.71447E-1,6.26281E-1
-6.48773E-1,6.48773E-1
-6.24603E-1,6.69494E-1
-5.99945E-1,6.90063E-1
-5.74493E-1,7.09625E-1
-5.47882E-1,7.28881E-1
-5.20141E-1,7.46643E-1
-4.92919E-1,7.63977E-1
-4.63653E-1,7.80731E-1
-4.34967E-1,7.95471E-1
-4.04846E-1,8.10302E-1
-3.73657E-1,8.23150E-1
-3.42895E-1,8.36273E-1
-3.10577E-1,8.47686E-1
-2.77465E-1,8.57696E-1
-2.44659E-1,8.67309E-1
-2.08374E-1,8.75122E-1
-1.7276E-1,8.80889E-1
-1.3974E-1,8.85742E-1
-1.06231E-1,8.90228E-1
-0.71929E-1,8.93066E-1
-0.36682E-1,8.95233E-1
-0.00732E-1,8.95965E-1
0.34668E-1,8.94348E-1
0.70465E-1,8.92700E-1
1.06201E-1,8.89038E-1
1.42486E-1,8.84033E-1
1.78710E-1,8.76831E-1
2.14080E-1,8.69293E-1
2.49877E-1,8.59710E-1
2.84240E-1,8.48907E-1
3.19671E-1,8.36090E-1
3.53973E-1,8.23120E-1
3.87115E-1,8.07556E-1
4.20288E-1,7.91168E-1
4.52972E-1,7.72125E-1
4.84405E-1,7.53051E-1
5.15136E-1,7.32574E-1
5.45257E-1,7.10815E-1
5.73730E-1,6.87744E-1
6.01562E-1,6.63879E-1
6.28936E-1,6.38519E-1
6.55487E-1,6.11450E-1
6.79931E-1,5.84472E-1
7.04162E-1,5.54351E-1
7.27386E-1,5.20629E-1
7.47436E-1,4.89593E-1
7.66449E-1,4.62493E-1
7.84729E-1,4.33319E-1
8.02490E-1,4.01580E-1
8.18420E-1,3.68713E-1
8.33038E-1,3.35449E-1
8.45855E-1,3.02795E-1
8.57757E-1,2.68554E-1
8.69445E-1,2.34161E-1
8.78418E-1,1.99249E-1
8.86444E-1,1.64764E-1
8.93432E-1,1.27929E-1
8.98437E-1,0.92498E-1
9.02099E-1,0.57617E-1
9.04235E-1,0.23223E-1
9.05792E-1,-0.11657E-1
9.05853E-1,-0.46997E-1
9.04510E-1,-0.81146E-1
9.01611E-1,-1.15997E-1
8.97979E-1,-1.50024E-1
8.92700E-1,-1.82922E-1
8.86871E-1,-2.16522E-1
8.79669E-1,-2.50030E-1
8.71765E-1,-2.82287E-1
8.61755E-1,-3.14300E-1
8.51348E-1,-3.46496E-1
8.39996E-1,-3.77227E-1
8.26446E-1,-4.07257E-1
8.12561E-1,-4.36645E-1
7.98767E-1,-4.64996E-1
7.82623E-1,-4.93652E-1
7.68249E-1,-5.18829E-1
7.55096E-1,-5.44738E-1
7.34649E-1,-5.73394E-1
7.12951E-1,-5.99365E-1
6.93176E-1,-6.24176E-1
6.73187E-1,-6.47766E-1
6.51214E-1,-6.70532E-1
6.29486E-1,-6.91986E-1
6.06597E-1,-7.12310E-1
5.84137E-1,-7.32147E-1
5.61492E-1,-7.51251E-1
5.37658E-1,-7.68829E-1
5.13763E-1,-7.85644E-1
4.90051E-1,-8.02032E-1
4.65423E-1,-8.17443E-1
4.40673E-1,-8.32611E-1
4.16259E-1,-8.46313E-1
3.90350E-1,-8.59588E-1
3.65509E-1,-8.72283E-1
3.38897E-1,-8.83728E-1
3.12316E-1,-8.94195E-1
2.86499E-1,-9.03350E-1
2.60376E-1,-9.12414E-1
2.34802E-1,-9.19738E-1
2.09777E-1,-9.29443E-1
1.81457E-1,-9.33807E-1
1.59088E-1,-9.43115E-1
1.34948E-1,-9.55291E-1
1.0495E-1,-9.56665E-1
0.77301E-1,-9.54772E-1
0.51452E-1,-9.55749E-1
0.25146E-1,-9.57428E-1
-0.00915E-1,-9.59320E-1
-0.26336E-1,-9.60296E-1
-0.51971E-1,-9.59655E-1
-0.76873E-1,-9.59106E-1
-1.02081E-1,-9.58160E-1
-1.27197E-1,-9.56024E-1
-1.52099E-1,-9.53369E-1
-1.77002E-1,-9.50531E-1
-2.01385E-1,-9.46197E-1
-2.25463E-1,-9.41589E-1
-2.49084E-1,-9.36828E-1
-2.72979E-1,-9.30755E-1
-2.95959E-1,-9.24163E-1
-3.19610E-1,-9.17388E-1
-3.4198E-1,-9.10278E-1
-3.64379E-1,-9.01367E-1
-3.862E-1,-8.92944E-1
-4.0802E-1,-8.83697E-1
-4.29046E-1,-8.73992E-1
-4.49646E-1,-8.63189E-1
-4.70153E-1,-8.53454E-1
-4.90112E-1,-8.41888E-1
-5.09765E-1,-8.3078E-1
-5.28717E-1,-8.19305E-1
-5.48004E-1,-8.06762E-1
-5.66345E-1,-7.94097E-1
-5.84198E-1,-7.80975E-1
-6.02172E-1,-7.67486E-1
-6.19140E-1,-7.53875E-1
-6.36566E-1,-7.39532E-1
-6.53076E-1,-7.25036E-1
-6.69189E-1,-7.11090E-1
-6.84722E-1,-6.96228E-1
-7.00042E-1,-6.81457E-1
-7.14874E-1,-6.65649E-1
-7.29522E-1,-6.50390E-1
-7.43530E-1,-6.34429E-1
-7.57385E-1,-6.18316E-1
-7.70599E-1,-6.02386E-1
-7.83508E-1,-5.86212E-1
-7.96295E-1,-5.68939E-1
-8.08258E-1,-5.52429E-1
-8.20098E-1,-5.35766E-1
-8.31695E-1,-5.18646E-1
-8.42437E-1,-5.01464E-1
-8.53088E-1,-4.83764E-1
-8.62854E-1,-4.66796E-1
-8.72375E-1,-4.48272E-1
-8.82537E-1,-4.30816E-1
-8.91449E-1,-4.13421E-1
-8.99902E-1,-3.95355E-1
-9.07562E-1,-3.76861E-1
-9.15618E-1,-3.59191E-1
-9.22332E-1,-3.40698E-1
-9.29748E-1,-3.22326E-1
-9.35760E-1,-3.03375E-1
-9.42016E-1,-2.85522E-1
-9.47418E-1,-2.66479E-1
-9.53033E-1,-2.48565E-1
-9.57519E-1,-2.29034E-1
-9.61364E-1,-2.10845E-1
-9.65179E-1,-1.92108E-1
-9.69085E-1,-1.73492E-1
-9.71252E-1,-1.53686E-1
-9.74273E-1,-1.35772E-1
-9.76532E-1,-1.18133E-1
-9.78302E-1,-0.98419E-1
-9.79064E-1,-0.78247E-1
-9.79797E-1,-0.59509E-1
-9.80926E-1,-0.41931E-1
-9.81933E-1,-0.23925E-1
-9.82147E-1,-0.05737E-1
-9.81353E-1,0.12481E-1
-9.80987E-1,0.30151E-1
-9.79644E-1,0.48797E-1
-9.78668E-1,0.66864E-1
-9.76837E-1,0.84533E-1
-9.75494E-1,1.03302E-1
-9.72686E-1,1.21032E-1
-9.69848E-1,1.38916E-1
-9.67681E-1,1.56494E-1
-9.64599E-1,1.73828E-1
-9.60907E-1,1.91284E-1
-9.56909E-1,2.08984E-1
-9.53491E-1,2.26348E-1
-9.49615E-1,2.44140E-1
-9.44732E-1,2.60711E-1
-9.40582E-1,2.77679E-1
-9.35760E-1,2.94097E-1
-9.29870E-1,3.11126E-1
-9.24041E-1,3.27758E-1
-9.18762E-1,3.44665E-1
-9.12384E-1,3.60534E-1
-9.06127E-1,3.76373E-1
-8.99475E-1,3.92608E-1
-8.92822E-1,4.08569E-1
-8.85284E-1,4.23828E-1
-8.77929E-1,4.40124E-1
-8.70178E-1,4.55352E-1
-8.61816E-1,4.70397E-1
-8.53942E-1,4.84588E-1
-8.45245E-1,4.99694E-1
-8.35327E-1,5.16449E-1
-8.24615E-1,5.31158E-1
-8.14636E-1,5.45166E-1
-8.06427E-1,5.58227E-1
-7.9776E-1,5.70922E-1
-7.89032E-1,5.83831E-1
-7.7948E-1,5.96740E-1
-7.69500E-1,6.09436E-1
-7.58636E-1,6.22253E-1
-7.48199E-1,6.35223E-1
-7.36694E-1,6.46972E-1
-7.25677E-1,6.59179E-1
-7.14233E-1,6.71142E-1
-7.02209E-1,6.82495E-1
-6.91436E-1,6.93756E-1
-6.79168E-1,7.05352E-1
-6.67480E-1,7.16735E-1
-6.54907E-1,7.26776E-1
-6.42486E-1,7.37609E-1
-6.29913E-1,7.48046E-1
-6.16821E-1,7.57110E-1
-6.03729E-1,7.67334E-1
-5.91918E-1,7.77252E-1
-5.78613E-1,7.86590E-1
-5.65399E-1,7.96173E-1
-5.51727E-1,8.03894E-1
-5.37811E-1,8.12896E-1
-5.24597E-1,8.21380E-1
-5.11047E-1,8.30322E-1
-4.97192E-1,8.37921E-1
-4.83551E-1,8.46313E-1
-4.69757E-1,8.54553E-1
-4.55200E-1,8.61450E-1
-4.41253E-1,8.69567E-1
-4.26940E-1,8.76220E-1
-4.12353E-1,8.83239E-1
-3.98712E-1,8.90380E-1
-3.83361E-1,8.96209E-1
-3.68103E-1,9.02404E-1
-3.51470E-1,9.09088E-1
-3.32611E-1,9.13940E-1
-3.15338E-1,9.18487E-1
-3.00933E-1,9.22576E-1
-2.88696E-1,9.26971E-1
-2.77496E-1,9.33075E-1
-2.64862E-1,9.37774E-1
-2.50885E-1,9.43328E-1
-2.35626E-1,9.47265E-1
-2.21099E-1,9.50073E-1
-2.0578E-1,9.53521E-1
-1.90795E-1,9.56939E-1
-1.75598E-1,9.59014E-1
-1.60003E-1,9.61914E-1
-1.44775E-1,9.63806E-1
-1.30218E-1,9.65789E-1
-1.14440E-1,9.68109E-1
-0.99273E-1,9.69757E-1
-0.84259E-1,9.70184E-1
-0.69122E-1,9.71771E-1
-0.53924E-1,9.70916E-1
-0.38909E-1,9.71466E-1
-0.24261E-1,9.71679E-1
-0.08239E-1,9.71893E-1
0.06683E-1,9.71588E-1
0.21453E-1,9.71069E-1
0.36712E-1,9.69940E-1
0.51544E-1,9.69238E-1
0.66650E-1,9.67895E-1
0.81237E-1,9.66613E-1
0.96191E-1,9.65271E-1
1.10900E-1,9.63104E-1
1.25854E-1,9.60754E-1
1.40594E-1,9.58953E-1
1.55822E-1,9.55963E-1
1.70684E-1,9.53582E-1
1.85333E-1,9.50622E-1
1.99676E-1,9.47509E-1
2.14508E-1,9.44213E-1
2.28790E-1,9.40856E-1
2.43774E-1,9.36889E-1
2.57659E-1,9.33685E-1
2.72003E-1,9.28833E-1
2.86621E-1,9.25781E-1
3.00018E-1,9.20837E-1
3.13385E-1,9.16992E-1
3.25378E-1,9.13787E-1
3.37921E-1,9.10949E-1
3.54003E-1,9.06982E-1
3.69781E-1,8.98681E-1
3.85192E-1,8.89709E-1
3.98986E-1,8.82324E-1
4.12139E-1,8.76312E-1
4.25262E-1,8.70513E-1
4.38934E-1,8.63922E-1
4.51599E-1,8.57757E-1
4.65026E-1,8.50769E-1
4.78485E-1,8.43719E-1
4.91882E-1,8.36212E-1
5.03906E-1,8.28064E-1
5.16265E-1,8.20251E-1
5.28411E-1,8.12042E-1
5.40710E-1,8.03833E-1
5.52978E-1,7.95257E-1
5.66253E-1,7.87109E-1
5.77117E-1,7.77252E-1
5.88836E-1,7.67974E-1
6.01226E-1,7.58514E-1
6.12060E-1,7.50335E-1
6.22802E-1,7.40264E-1
6.33667E-1,7.30957E-1
6.44409E-1,7.22045E-1
6.54907E-1,7.10266E-1
6.65222E-1,7.01385E-1
6.75415E-1,6.89880E-1
6.85791E-1,6.79412E-1
6.94610E-1,6.69128E-1
7.05322E-1,6.57379E-1
7.14202E-1,6.46637E-1
7.22503E-1,6.36352E-1
7.32818E-1,6.25335E-1
7.40539E-1,6.12213E-1
7.46063E-1,5.98632E-1
7.49359E-1,5.84564E-1
END
