CITIFILE A.01.01
#NA VERSION HP8510C.07.14
NAME DATA
#NA REGISTER 1
VAR FREQ MAG 801
DATA S[1,1] RI
SEG_LIST_BEGIN
SEG 50000000 3000000000 801
SEG_LIST_END
COMMENT       YEAR MONTH DAY HOUR MINUTE SECONDS
CONSTANT TIME 2016   07   04  09    00    18.0
BEGIN
9.17724E-1,-3.95904E-1
9.04937E-1,-4.22088E-1
8.92334E-1,-4.48425E-1
8.79577E-1,-4.74151E-1
8.64746E-1,-4.99877E-1
8.50036E-1,-5.24169E-1
8.34838E-1,-5.48187E-1
8.19091E-1,-5.71655E-1
8.02368E-1,-5.94696E-1
7.82257E-1,-6.18560E-1
7.67944E-1,-6.39038E-1
7.50091E-1,-6.59912E-1
7.32299E-1,-6.79718E-1
7.13043E-1,-6.99401E-1
6.93939E-1,-7.18994E-1
6.74194E-1,-7.36816E-1
6.54449E-1,-7.54547E-1
6.34399E-1,-7.71179E-1
6.13739E-1,-7.87292E-1
5.93231E-1,-8.03436E-1
5.72601E-1,-8.18176E-1
5.51696E-1,-8.32122E-1
5.30670E-1,-8.46130E-1
5.09216E-1,-8.59039E-1
4.88098E-1,-8.70941E-1
4.66491E-1,-8.82354E-1
4.45190E-1,-8.93707E-1
4.23278E-1,-9.03808E-1
4.02252E-1,-9.13452E-1
3.80218E-1,-9.21936E-1
3.59222E-1,-9.30542E-1
3.37402E-1,-9.38232E-1
3.16558E-1,-9.45617E-1
2.95379E-1,-9.51934E-1
2.72613E-1,-9.58374E-1
2.52990E-1,-9.63897E-1
2.32025E-1,-9.68780E-1
2.09259E-1,-9.72778E-1
1.90673E-1,-9.76623E-1
1.71081E-1,-9.80224E-1
1.45141E-1,-9.81323E-1
1.31469E-1,-9.84619E-1
1.11938E-1,-9.87365E-1
0.92987E-1,-9.88922E-1
0.73883E-1,-9.90081E-1
0.55267E-1,-9.91333E-1
0.35919E-1,-9.91760E-1
0.18554E-1,-9.92309E-1
0.00305E-1,-9.92675E-1
-0.17974E-1,-9.91729E-1
-0.35797E-1,-9.91363E-1
-0.53436E-1,-9.90356E-1
-0.70770E-1,-9.89440E-1
-0.88043E-1,-9.87609E-1
-1.05133E-1,-9.85687E-1
-1.22131E-1,-9.83581E-1
-1.38275E-1,-9.80163E-1
-1.54876E-1,-9.78576E-1
-1.70471E-1,-9.75006E-1
-1.86035E-1,-9.72168E-1
-2.01721E-1,-9.68048E-1
-2.17041E-1,-9.64355E-1
-2.31536E-1,-9.60327E-1
-2.46398E-1,-9.56543E-1
-2.60681E-1,-9.53002E-1
-2.77832E-1,-9.46136E-1
-2.89520E-1,-9.44183E-1
-3.02764E-1,-9.39025E-1
-3.16803E-1,-9.33746E-1
-3.29834E-1,-9.29443E-1
-3.43627E-1,-9.23126E-1
-3.54919E-1,-9.19799E-1
-3.67584E-1,-9.15588E-1
-3.80249E-1,-9.09820E-1
-3.91967E-1,-9.04174E-1
-3.99749E-1,-9.05242E-1
-4.14947E-1,-8.91967E-1
-4.26666E-1,-8.86962E-1
-4.37988E-1,-8.80767E-1
-4.48913E-1,-8.73840E-1
-4.58190E-1,-8.68804E-1
-4.68261E-1,-8.63189E-1
-4.77935E-1,-8.58093E-1
-4.88281E-1,-8.51806E-1
-4.98352E-1,-8.45916E-1
-5.07598E-1,-8.39630E-1
-5.16357E-1,-8.33953E-1
-5.25817E-1,-8.27270E-1
-5.34362E-1,-8.21563E-1
-5.43548E-1,-8.15856E-1
-5.52246E-1,-8.09539E-1
-5.60943E-1,-8.03527E-1
-5.69183E-1,-7.96905E-1
-5.77179E-1,-7.90252E-1
-5.84503E-1,-7.84240E-1
-5.91918E-1,-7.78472E-1
-6.00006E-1,-7.72247E-1
-6.07727E-1,-7.66052E-1
-6.15509E-1,-7.59643E-1
-6.22406E-1,-7.53448E-1
-6.29364E-1,-7.46948E-1
-6.36688E-1,-7.40966E-1
-6.44012E-1,-7.35107E-1
-6.51214E-1,-7.28790E-1
-6.57196E-1,-7.21679E-1
-6.64123E-1,-7.14965E-1
-6.70318E-1,-7.08343E-1
-6.75659E-1,-7.01843E-1
-6.81945E-1,-6.96289E-1
-6.87927E-1,-6.90246E-1
-6.94366E-1,-6.84478E-1
-6.99768E-1,-6.78497E-1
-7.05139E-1,-6.72180E-1
-7.11151E-1,-6.66168E-1
-7.16125E-1,-6.60400E-1
-7.21740E-1,-6.54968E-1
-7.27508E-1,-6.49475E-1
-7.32788E-1,-6.43249E-1
-7.38555E-1,-6.36871E-1
-7.43682E-1,-6.31134E-1
-7.48657E-1,-6.24939E-1
-7.53356E-1,-6.18957E-1
-7.57690E-1,-6.13708E-1
-7.62512E-1,-6.07940E-1
-7.67578E-1,-6.02630E-1
-7.72125E-1,-5.96893E-1
-7.76641E-1,-5.90606E-1
-7.81280E-1,-5.85479E-1
-7.85644E-1,-5.79528E-1
-7.89886E-1,-5.74401E-1
-7.93975E-1,-5.68725E-1
-7.98339E-1,-5.62927E-1
-8.02459E-1,-5.56884E-1
-8.06091E-1,-5.51788E-1
-8.09600E-1,-5.46203E-1
-8.13324E-1,-5.40863E-1
-8.16528E-1,-5.35949E-1
-8.20434E-1,-5.31036E-1
-8.24066E-1,-5.25848E-1
-8.28216E-1,-5.19561E-1
-8.31420E-1,-5.13366E-1
-8.35235E-1,-5.09216E-1
-8.38897E-1,-5.03356E-1
-8.42163E-1,-4.98107E-1
-8.45123E-1,-4.92431E-1
-8.48480E-1,-4.86602E-1
-8.51257E-1,-4.82208E-1
-8.54309E-1,-4.76928E-1
-8.57482E-1,-4.71160E-1
-8.60717E-1,-4.63867E-1
-8.63647E-1,-4.60388E-1
-8.66638E-1,-4.54711E-1
-8.69262E-1,-4.48852E-1
-8.71826E-1,-4.44732E-1
-8.75122E-1,-4.38781E-1
-8.77533E-1,-4.33044E-1
-8.80004E-1,-4.27795E-1
-8.83331E-1,-4.22393E-1
-8.86138E-1,-4.10644E-1
-8.88427E-1,-4.11285E-1
-8.90808E-1,-4.06524E-1
-8.93158E-1,-4.01306E-1
-8.96637E-1,-3.96148E-1
-8.98651E-1,-3.91540E-1
-9.00604E-1,-3.86230E-1
-9.03259E-1,-3.80981E-1
-9.05334E-1,-3.75671E-1
-9.07623E-1,-3.70971E-1
-9.09576E-1,-3.66760E-1
-9.12780E-1,-3.67523E-1
-9.13665E-1,-3.56079E-1
-9.15618E-1,-3.51135E-1
-9.17907E-1,-3.46099E-1
-9.20013E-1,-3.41613E-1
-9.21600E-1,-3.37005E-1
-9.24133E-1,-3.32580E-1
-9.25201E-1,-3.27301E-1
-9.28253E-1,-3.22753E-1
-9.20867E-1,-3.19000E-1
-9.31549E-1,-3.13171E-1
-9.33258E-1,-3.08776E-1
-9.34661E-1,-3.04077E-1
-9.36309E-1,-2.99438E-1
-9.38110E-1,-2.94830E-1
-9.39788E-1,-2.90741E-1
-9.41162E-1,-2.86010E-1
-9.42443E-1,-2.81311E-1
-9.43939E-1,-2.76825E-1
-9.45434E-1,-2.72430E-1
-9.46960E-1,-2.67639E-1
-9.48059E-1,-2.63549E-1
-9.49310E-1,-2.58789E-1
-9.50592E-1,-2.54455E-1
-9.51690E-1,-2.49939E-1
-9.53094E-1,-2.45117E-1
-9.54223E-1,-2.40631E-1
-9.55017E-1,-2.35870E-1
-9.56359E-1,-2.31628E-1
-9.57458E-1,-2.26989E-1
-9.58496E-1,-2.22412E-1
-9.59228E-1,-2.18200E-1
-9.60479E-1,-2.13958E-1
-9.61059E-1,-2.09350E-1
-9.62371E-1,-2.04681E-1
-9.63378E-1,-2.00531E-1
-9.64202E-1,-1.95922E-1
-9.65026E-1,-1.91528E-1
-9.65576E-1,-1.87622E-1
-9.66583E-1,-1.82373E-1
-9.67285E-1,-1.78192E-1
-9.68139E-1,-1.73919E-1
-9.68780E-1,-1.69830E-1
-9.69787E-1,-1.65344E-1
-9.70581E-1,-1.61407E-1
-9.71130E-1,-1.56829E-1
-9.72198E-1,-1.52832E-1
-9.72961E-1,-1.49047E-1
-9.73205E-1,-1.44897E-1
-9.73877E-1,-1.41052E-1
-9.74945E-1,-1.36016E-1
-9.75280E-1,-1.31042E-1
-9.76440E-1,-1.28448E-1
-9.77142E-1,-1.24389E-1
-9.77630E-1,-1.20330E-1
-9.78057E-1,-1.16638E-1
-9.78515E-1,-1.12640E-1
-9.79736E-1,-1.08093E-1
-9.79797E-1,-1.05041E-1
-9.80560E-1,-1.00555E-1
-9.81109E-1,-0.97137E-1
-9.81903E-1,-0.93689E-1
-9.82238E-1,-0.89447E-1
-9.81994E-1,-0.8255E-1
-9.81964E-1,-0.78399E-1
-9.83581E-1,-0.76934E-1
-9.84771E-1,-0.73150E-1
-9.84497E-1,-0.69000E-1
-9.84954E-1,-0.65887E-1
-9.84436E-1,-0.62164E-1
-9.84954E-1,-0.57403E-1
-9.85290E-1,-0.54412E-1
-9.85534E-1,-0.50231E-1
-9.86022E-1,-0.46081E-1
-9.85748E-1,-0.41748E-1
-9.85656E-1,-0.37780E-1
-9.85961E-1,-0.33783E-1
-9.84954E-1,-0.26641E-1
-9.81567E-1,-0.17852E-1
-9.85290E-1,-0.20385E-1
-9.86480E-1,-0.18676E-1
-9.86908E-1,-0.15045E-1
-9.86480E-1,-0.10833E-1
-9.85870E-1,-0.07263E-1
-9.86633E-1,-0.03265E-1
-9.8703E-1,0.00885E-1
-9.86938E-1,0.04699E-1
-9.86419E-1,0.08178E-1
-9.86755E-1,0.12512E-1
-9.85870E-1,0.16204E-1
-9.86022E-1,0.20385E-1
-9.86480E-1,0.24414E-1
-9.86419E-1,0.27832E-1
-9.86816E-1,0.30883E-1
-9.90203E-1,0.28930E-1
-9.86755E-1,0.39886E-1
-9.85992E-1,0.44158E-1
-9.86236E-1,0.47363E-1
-9.85839E-1,0.52063E-1
-9.85321E-1,0.55938E-1
-9.85321E-1,0.59478E-1
-9.85656E-1,0.62866E-1
-9.86053E-1,0.66314E-1
-9.85412E-1,0.70861E-1
-9.85534E-1,0.74981E-1
-9.85382E-1,0.78002E-1
-9.84893E-1,0.80658E-1
-9.88586E-1,0.71777E-1
-9.85839E-1,0.85998E-1
-9.83184E-1,0.94970E-1
-9.83123E-1,0.98724E-1
-9.83062E-1,1.01806E-1
-9.82360E-1,1.06536E-1
-9.81994E-1,1.10687E-1
-9.81689E-1,1.14196E-1
-9.80773E-1,1.17981E-1
-9.80468E-1,1.22253E-1
-9.80133E-1,1.26251E-1
-9.79187E-1,1.29608E-1
-9.79095E-1,1.34277E-1
-9.79034E-1,1.37817E-1
-9.77630E-1,1.42425E-1
-9.77020E-1,1.46728E-1
-9.75647E-1,1.50848E-1
-9.75036E-1,1.54632E-1
-9.74578E-1,1.59027E-1
-9.74121E-1,1.63238E-1
-9.73083E-1,1.67266E-1
-9.72412E-1,1.71630E-1
-9.71435E-1,1.75659E-1
-9.70550E-1,1.80114E-1
-9.70062E-1,1.83502E-1
-9.68933E-1,1.88568E-1
-9.67987E-1,1.92596E-1
-9.66644E-1,1.96929E-1
-9.65881E-1,2.00927E-1
-9.6521E-1,2.05413E-1
-9.64080E-1,2.09655E-1
-9.63165E-1,2.14050E-1
-9.62371E-1,2.17895E-1
-9.61731E-1,2.22534E-1
-9.60022E-1,2.27111E-1
-9.59259E-1,2.31750E-1
-9.58221E-1,2.35595E-1
-9.57214E-1,2.39624E-1
-9.55566E-1,2.44415E-1
-9.54925E-1,2.48962E-1
-9.54223E-1,2.53173E-1
-9.52331E-1,2.57080E-1
-9.51934E-1,2.61932E-1
-9.50134E-1,2.66632E-1
-9.48883E-1,2.71423E-1
-9.48028E-1,2.75573E-1
-9.46502E-1,2.79937E-1
-9.45007E-1,2.84851E-1
-9.43847E-1,2.89032E-1
-9.42413E-1,2.93487E-1
-9.40795E-1,2.98675E-1
-9.39239E-1,3.03405E-1
-9.37316E-1,3.07647E-1
-9.35272E-1,3.12652E-1
-9.33868E-1,3.17535E-1
-9.31976E-1,3.22509E-1
-9.29809E-1,3.26904E-1
-9.28070E-1,3.30993E-1
-9.26971E-1,3.36273E-1
-9.24713E-1,3.41064E-1
-9.22637E-1,3.45672E-1
-9.20562E-1,3.51043E-1
-9.18029E-1,3.55651E-1
-9.15771E-1,3.60595E-1
-9.13818E-1,3.65783E-1
-9.11560E-1,3.71002E-1
-9.08905E-1,3.75976E-1
-9.06738E-1,3.80432E-1
-9.04327E-1,3.86138E-1
-9.01825E-1,3.91357E-1
-8.99292E-1,3.96087E-1
-8.96789E-1,4.01245E-1
-8.94287E-1,4.0625E-1
-8.91235E-1,4.11468E-1
-8.89465E-1,4.17175E-1
-8.86566E-1,4.22058E-1
-8.83392E-1,4.27185E-1
-8.80462E-1,4.32495E-1
-8.77899E-1,4.38018E-1
-8.75244E-1,4.43267E-1
-8.71887E-1,4.48638E-1
-8.68621E-1,4.54864E-1
-8.66027E-1,4.59930E-1
-8.62884E-1,4.65026E-1
-8.59405E-1,4.70153E-1
-8.56140E-1,4.76074E-1
-8.53088E-1,4.80926E-1
-8.49609E-1,4.87060E-1
-8.46466E-1,4.92614E-1
-8.42590E-1,4.97924E-1
-8.38958E-1,5.0354E-1
-8.35052E-1,5.09063E-1
-8.31878E-1,5.14892E-1
-8.27758E-1,5.19897E-1
-8.23486E-1,5.26153E-1
-8.20007E-1,5.32135E-1
-8.15368E-1,5.37475E-1
-8.11523E-1,5.43151E-1
-8.06579E-1,5.48919E-1
-8.01727E-1,5.55053E-1
-7.97210E-1,5.60363E-1
-7.93182E-1,5.66314E-1
-7.88543E-1,5.71350E-1
-7.83142E-1,5.77087E-1
-7.78442E-1,5.83190E-1
-7.72766E-1,5.89355E-1
-7.68096E-1,5.94909E-1
-7.62420E-1,6.00738E-1
-7.56988E-1,6.06262E-1
-7.51556E-1,6.12762E-1
-7.45727E-1,6.18194E-1
-7.39471E-1,6.24542E-1
-7.34344E-1,6.30676E-1
-7.28241E-1,6.36474E-1
-7.21954E-1,6.42211E-1
-7.15789E-1,6.48407E-1
-7.09808E-1,6.53625E-1
-7.03002E-1,6.59454E-1
-6.96075E-1,6.65954E-1
-6.89941E-1,6.72424E-1
-6.83197E-1,6.77673E-1
-6.76178E-1,6.83654E-1
-6.69311E-1,6.89453E-1
-6.62231E-1,6.95648E-1
-6.54907E-1,7.01385E-1
-6.47247E-1,7.07489E-1
-6.40136E-1,7.13226E-1
-6.32080E-1,7.19146E-1
-6.24328E-1,7.25463E-1
-6.16607E-1,7.31475E-1
-6.07940E-1,7.37121E-1
-5.99884E-1,7.43316E-1
-5.91766E-1,7.49054E-1
-5.83221E-1,7.55035E-1
-5.74829E-1,7.60711E-1
-5.65734E-1,7.66082E-1
-5.56762E-1,7.72216E-1
-5.47363E-1,7.77374E-1
-5.37597E-1,7.83355E-1
-5.28656E-1,7.88330E-1
-5.18585E-1,7.93304E-1
-5.08972E-1,7.99804E-1
-4.99145E-1,8.04809E-1
-4.89105E-1,8.10150E-1
-4.78179E-1,8.15612E-1
-4.66949E-1,8.21106E-1
-4.56024E-1,8.25622E-1
-4.45343E-1,8.30627E-1
-4.33471E-1,8.35418E-1
-4.21783E-1,8.40301E-1
-4.09973E-1,8.43841E-1
-3.97796E-1,8.48510E-1
-3.86138E-1,8.53546E-1
-3.7323E-1,8.57116E-1
-3.60778E-1,8.60626E-1
-3.47961E-1,8.64410E-1
-3.35052E-1,8.68011E-1
-3.22265E-1,8.71734E-1
-3.07769E-1,8.75518E-1
-2.94281E-1,8.79577E-1
-2.80395E-1,8.82507E-1
-2.66052E-1,8.85803E-1
-2.51800E-1,8.88732E-1
-2.36938E-1,8.90686E-1
-2.22015E-1,8.93219E-1
-2.06726E-1,8.94866E-1
-1.91741E-1,8.96240E-1
-1.76361E-1,8.98437E-1
-1.61682E-1,8.99627E-1
-1.46087E-1,9.01275E-1
-1.30127E-1,9.02862E-1
-1.14166E-1,9.04357E-1
-0.97442E-1,9.04968E-1
-0.80719E-1,9.05548E-1
-0.63903E-1,9.05487E-1
-0.47149E-1,9.05334E-1
-0.29937E-1,9.05304E-1
-0.12603E-1,9.04510E-1
0.04852E-1,9.03656E-1
0.22979E-1,9.02069E-1
0.40741E-1,9.00146E-1
0.59722E-1,8.97583E-1
0.78796E-1,8.94043E-1
0.96405E-1,8.91113E-1
1.13769E-1,8.87878E-1
1.32354E-1,8.84338E-1
1.50939E-1,8.79882E-1
1.70288E-1,8.75305E-1
1.89361E-1,8.69323E-1
2.07397E-1,8.63739E-1
2.25738E-1,8.57574E-1
2.44873E-1,8.51165E-1
2.64160E-1,8.44696E-1
2.83630E-1,8.36181E-1
3.02764E-1,8.27514E-1
3.21563E-1,8.19061E-1
3.41003E-1,8.08990E-1
3.59527E-1,7.98797E-1
3.77868E-1,7.88940E-1
3.96728E-1,7.78717E-1
4.14886E-1,7.68341E-1
4.34173E-1,7.57263E-1
4.53002E-1,7.44506E-1
4.72076E-1,7.31628E-1
4.89776E-1,7.17834E-1
5.07965E-1,7.03369E-1
5.24902E-1,6.90155E-1
5.43731E-1,6.74377E-1
5.61767E-1,6.58233E-1
5.78949E-1,6.44012E-1
5.96160E-1,6.28784E-1
6.13586E-1,6.12243E-1
6.30767E-1,5.94451E-1
6.47888E-1,5.75958E-1
6.63818E-1,5.57098E-1
6.79840E-1,5.37597E-1
6.94732E-1,5.17791E-1
7.09838E-1,4.97161E-1
7.24548E-1,4.76074E-1
7.37854E-1,4.54559E-1
7.51678E-1,4.32769E-1
7.64160E-1,4.11468E-1
7.76794E-1,3.88427E-1
7.89642E-1,3.65570E-1
7.99957E-1,3.41766E-1
8.10974E-1,3.17993E-1
8.20373E-1,2.93304E-1
8.30383E-1,2.68981E-1
8.40026E-1,2.43896E-1
8.48205E-1,2.17590E-1
8.54888E-1,1.91192E-1
8.61389E-1,1.64794E-1
8.65539E-1,1.38641E-1
8.70361E-1,1.12182E-1
8.74603E-1,0.86578E-1
8.77960E-1,0.59295E-1
8.79425E-1,0.28503E-1
8.80859E-1,0.01220E-1
8.83544E-1,-0.23010E-1
8.84735E-1,-0.48584E-1
8.83728E-1,-0.75592E-1
8.82385E-1,-1.02813E-1
8.79699E-1,-1.29791E-1
8.75946E-1,-1.56127E-1
8.71154E-1,-1.81884E-1
8.67034E-1,-2.07702E-1
8.61267E-1,-2.32421E-1
8.56262E-1,-2.56958E-1
8.50463E-1,-2.84057E-1
8.43414E-1,-3.09509E-1
8.35784E-1,-3.34686E-1
8.26538E-1,-3.59069E-1
8.16741E-1,-3.83148E-1
8.06518E-1,-4.06921E-1
7.96051E-1,-4.28833E-1
7.84729E-1,-4.51171E-1
7.73864E-1,-4.73571E-1
7.62329E-1,-4.95178E-1
7.49633E-1,-5.16449E-1
7.36938E-1,-5.37567E-1
7.24121E-1,-5.57464E-1
7.10022E-1,-5.77575E-1
6.96075E-1,-5.96740E-1
6.81823E-1,-6.15631E-1
6.66626E-1,-6.33422E-1
6.51428E-1,-6.50543E-1
6.36261E-1,-6.67083E-1
6.20422E-1,-6.83746E-1
6.06445E-1,-6.98638E-1
5.94451E-1,-7.14294E-1
5.74310E-1,-7.30072E-1
5.54779E-1,-7.44049E-1
5.37841E-1,-7.57141E-1
5.21850E-1,-7.69897E-1
5.04577E-1,-7.82348E-1
4.87915E-1,-7.94097E-1
4.70794E-1,-8.05603E-1
4.54162E-1,-8.16650E-1
4.36920E-1,-8.27636E-1
4.19708E-1,-8.36822E-1
4.02801E-1,-8.47259E-1
3.85589E-1,-8.56414E-1
3.68255E-1,-8.64502E-1
3.51226E-1,-8.72345E-1
3.34930E-1,-8.80462E-1
3.17504E-1,-8.88183E-1
3.00903E-1,-8.95233E-1
2.83325E-1,-9.01977E-1
2.65930E-1,-9.08386E-1
2.49694E-1,-9.13360E-1
2.32666E-1,-9.19128E-1
2.16735E-1,-9.23492E-1
2.01538E-1,-9.30114E-1
1.83105E-1,-9.32220E-1
1.70929E-1,-9.39514E-1
1.57196E-1,-9.50256E-1
1.37847E-1,-9.50897E-1
1.19812E-1,-9.49157E-1
1.04309E-1,-9.50012E-1
0.88531E-1,-9.51904E-1
0.73181E-1,-9.54986E-1
0.57617E-1,-9.57244E-1
0.42816E-1,-9.58465E-1
0.27282E-1,-9.59960E-1
0.12207E-1,-9.61242E-1
-0.02471E-1,-9.61700E-1
-0.17150E-1,-9.62127E-1
-0.31707E-1,-9.62890E-1
-0.45776E-1,-9.62677E-1
-0.59478E-1,-9.63165E-1
-0.73425E-1,-9.63348E-1
-0.87097E-1,-9.62768E-1
-1.01226E-1,-9.61608E-1
-1.15173E-1,-9.61120E-1
-1.28448E-1,-9.59960E-1
-1.41387E-1,-9.57885E-1
-1.54418E-1,-9.56359E-1
-1.66900E-1,-9.54711E-1
-1.79748E-1,-9.53186E-1
-1.92047E-1,-9.5047E-1
-2.04437E-1,-9.49157E-1
-2.16918E-1,-9.46533E-1
-2.29034E-1,-9.44427E-1
-2.40570E-1,-9.41986E-1
-2.52410E-1,-9.38903E-1
-2.64038E-1,-9.36096E-1
-2.75268E-1,-9.33197E-1
-2.86499E-1,-9.30114E-1
-2.97210E-1,-9.26574E-1
-3.08593E-1,-9.23309E-1
-3.19702E-1,-9.20105E-1
-3.29956E-1,-9.17175E-1
-3.40362E-1,-9.13604E-1
-3.49945E-1,-9.10308E-1
-3.60839E-1,-9.06341E-1
-3.70941E-1,-9.02984E-1
-3.81164E-1,-8.99047E-1
-3.90838E-1,-8.94775E-1
-4.00360E-1,-8.91235E-1
-4.09759E-1,-8.87085E-1
-4.18853E-1,-8.82965E-1
-4.28070E-1,-8.78723E-1
-4.37286E-1,-8.74969E-1
-4.46319E-1,-8.70636E-1
-4.55444E-1,-8.66668E-1
-4.64080E-1,-8.6203E-1
-4.72900E-1,-8.58367E-1
-4.81048E-1,-8.53088E-1
-4.90020E-1,-8.48907E-1
-4.98321E-1,-8.44482E-1
-5.05981E-1,-8.39843E-1
-5.14068E-1,-8.34991E-1
-5.21698E-1,-8.30749E-1
-5.29327E-1,-8.25592E-1
-5.38116E-1,-8.21350E-1
-5.45166E-1,-8.15704E-1
-5.52276E-1,-8.11248E-1
-5.59722E-1,-8.06213E-1
-5.66864E-1,-8.01818E-1
-5.74035E-1,-7.96142E-1
-5.80505E-1,-7.91046E-1
-5.86883E-1,-7.86407E-1
-5.94207E-1,-7.81616E-1
-6.00738E-1,-7.74932E-1
-6.06994E-1,-7.71026E-1
-6.12670E-1,-7.66235E-1
-6.20025E-1,-7.60223E-1
-6.26739E-1,-7.53326E-1
-6.32843E-1,-7.48291E-1
-6.37908E-1,-7.43377E-1
-6.43676E-1,-7.39044E-1
-6.49261E-1,-7.33642E-1
-6.54724E-1,-7.28607E-1
-6.59576E-1,-7.23724E-1
-6.65588E-1,-7.17742E-1
-6.71752E-1,-7.12890E-1
-6.76940E-1,-7.08374E-1
-6.82434E-1,-7.02697E-1
-6.87622E-1,-6.97723E-1
-6.92688E-1,-6.91619E-1
-6.97692E-1,-6.86981E-1
-7.02423E-1,-6.81915E-1
-7.07824E-1,-6.76635E-1
-7.12493E-1,-6.70684E-1
-7.17651E-1,-6.66107E-1
-7.23175E-1,-6.61010E-1
-7.27417E-1,-6.55609E-1
-7.32391E-1,-6.50970E-1
-7.36999E-1,-6.45996E-1
-7.41485E-1,-6.40747E-1
-7.46917E-1,-6.35528E-1
-7.51037E-1,-6.29364E-1
-7.54882E-1,-6.25122E-1
-7.58361E-1,-6.19506E-1
-7.63458E-1,-6.14471E-1
-7.67486E-1,-6.09039E-1
-7.71270E-1,-6.03485E-1
-7.75939E-1,-5.98236E-1
-7.79724E-1,-5.93200E-1
-7.83691E-1,-5.88531E-1
-7.86834E-1,-5.83190E-1
-7.91564E-1,-5.77789E-1
-7.96569E-1,-5.70922E-1
-7.99713E-1,-5.63812E-1
-8.03131E-1,-5.58441E-1
-8.05938E-1,-5.54077E-1
-8.0896E-1,-5.50201E-1
-8.11859E-1,-5.46112E-1
-8.14697E-1,-5.41809E-1
-8.18084E-1,-5.36560E-1
-8.21350E-1,-5.31738E-1
-8.24829E-1,-5.26733E-1
-8.27209E-1,-5.20904E-1
-8.29834E-1,-5.16113E-1
-8.32672E-1,-5.11077E-1
-8.35815E-1,-5.06042E-1
-8.38317E-1,-5.01281E-1
-8.41857E-1,-4.96063E-1
-8.44512E-1,-4.91149E-1
-8.46466E-1,-4.85656E-1
-8.49304E-1,-4.80712E-1
-8.51532E-1,-4.75128E-1
-8.54522E-1,-4.70672E-1
-8.56994E-1,-4.65637E-1
-8.59436E-1,-4.60998E-1
-8.61572E-1,-4.56054E-1
-8.64837E-1,-4.51477E-1
-8.65783E-1,-4.45739E-1
-8.68499E-1,-4.40155E-1
-8.70483E-1,-4.35577E-1
-8.73168E-1,-4.30755E-1
-8.75824E-1,-4.25933E-1
-8.77716E-1,-4.21142E-1
-8.80584E-1,-4.16137E-1
-8.82934E-1,-4.10949E-1
-8.85314E-1,-4.06341E-1
-8.86871E-1,-4.01092E-1
-8.89679E-1,-3.96606E-1
-8.91387E-1,-3.91449E-1
-8.93737E-1,-3.862E-1
-8.95874E-1,-3.80615E-1
-8.97766E-1,-3.73657E-1
-9.00268E-1,-3.64990E-1
-9.00939E-1,-3.57635E-1
-9.01184E-1,-3.52691E-1
-9.03686E-1,-3.51257E-1
-9.06097E-1,-3.49792E-1
-9.0802E-1,-3.47137E-1
-9.11102E-1,-3.43719E-1
-9.12475E-1,-3.38806E-1
-9.13604E-1,-3.34320E-1
-9.15130E-1,-3.29467E-1
-9.16259E-1,-3.24920E-1
-9.18029E-1,-3.20068E-1
-9.19647E-1,-3.15338E-1
-9.21356E-1,-3.10791E-1
-9.22210E-1,-3.06396E-1
-9.23767E-1,-3.01239E-1
-9.25170E-1,-2.96905E-1
-9.26147E-1,-2.92633E-1
-9.27948E-1,-2.87902E-1
-9.27764E-1,-2.82409E-1
-9.28497E-1,-2.78411E-1
-9.30328E-1,-2.74169E-1
-9.31701E-1,-2.69531E-1
-9.32495E-1,-2.64831E-1
-9.33685E-1,-2.60498E-1
-9.33990E-1,-2.56469E-1
-9.35638E-1,-2.5177E-1
-9.36004E-1,-2.46948E-1
-9.37683E-1,-2.43164E-1
-9.38842E-1,-2.38525E-1
-9.39758E-1,-2.34191E-1
-9.40277E-1,-2.29980E-1
-9.40856E-1,-2.25708E-1
-9.41711E-1,-2.20916E-1
-9.43603E-1,-2.16613E-1
-9.44305E-1,-2.11975E-1
-9.44976E-1,-2.07672E-1
-9.45465E-1,-2.03033E-1
-9.46991E-1,-1.99096E-1
-9.46899E-1,-1.94183E-1
-9.48120E-1,-1.90185E-1
-9.48944E-1,-1.85424E-1
-9.50103E-1,-1.81488E-1
-9.50317E-1,-1.77673E-1
-9.51263E-1,-1.74285E-1
-9.52545E-1,-1.7276E-1
-9.55139E-1,-1.70623E-1
-9.57031E-1,-1.65222E-1
-9.56176E-1,-1.57470E-1
-9.55505E-1,-1.50146E-1
-9.55505E-1,-1.4505E-1
-9.55413E-1,-1.41296E-1
-9.56695E-1,-1.37603E-1
-9.57366E-1,-1.33026E-1
-9.58313E-1,-1.29119E-1
-9.58740E-1,-1.24542E-1
-9.59137E-1,-1.19812E-1
-9.60052E-1,-1.14898E-1
-9.59899E-1,-1.11053E-1
-9.60662E-1,-1.06597E-1
-9.60693E-1,-1.02264E-1
-9.60937E-1,-0.98053E-1
-9.61364E-1,-0.93689E-1
-9.61700E-1,-0.88714E-1
-9.61914E-1,-0.84472E-1
-9.61700E-1,-0.80169E-1
-9.62280E-1,-0.75164E-1
-9.61944E-1,-0.71228E-1
-9.61975E-1,-0.67657E-1
-9.62646E-1,-0.63385E-1
-9.63653E-1,-0.59936E-1
-9.62280E-1,-0.54748E-1
-9.62677E-1,-0.51361E-1
-9.62341E-1,-0.46569E-1
-9.62524E-1,-0.42358E-1
-9.62310E-1,-0.38909E-1
-9.62432E-1,-0.33599E-1
-9.61731E-1,-0.30334E-1
-9.61883E-1,-0.27374E-1
-9.61578E-1,-0.22857E-1
-9.59655E-1,-0.18066E-1
-9.54803E-1,-0.14648E-1
-9.49829E-1,-0.11718E-1
END
